;$FILEVERSION=1.1
;$STARTTIME=134242888748788907
;
;   Start time: 26.05.2026 19:07:54.878
;   Generated by MRS Applics Flasher V0.9.4
; 
;   Message Number
;   |         Time Offset (ms)
;   |         |        Type
;   |         |        |        ID (hex)
;   |         |        |        |     Data Length
;   |         |        |        |     |   Data Bytes (hex) ...
;   |         |        |        |     |   |
;---+--   ----+----  --+--  ----+---  +  -+ -- -- -- -- -- -- --
    1        3431.1  Rx     1FFFFFF0  8  01 17 00 F4 6B 00 00 49 
    2        5502.9  Tx     1FFFFFF1  2  00 00 
    3        6755.3  Rx     1FFFFFF0  8  00 17 00 F4 6B 00 00 49 
    4        8064.0  Tx     1FFFFFF1  2  00 00 
    5        8118.1  Rx     1FFFFFF0  8  00 17 00 F4 6B 00 00 49 
    6        8865.8  Tx     1FFFFFF1  6  20 10 17 00 F4 6B 
    7        8868.1  Rx     1FFFFFF2  8  21 10 17 00 F4 6B 00 49 
    8        8870.6  Tx     1FFFFFF1  5  20 03 00 4E 01 
    9        8873.9  Rx     1FFFFFF4  1  01 
   10        8884.6  Tx     1FFFFFF1  6  20 10 17 00 F4 6B 
   11        8887.0  Rx     1FFFFFF2  8  21 10 17 00 F4 6B 00 49 
   12        8888.6  Tx     1FFFFFF1  5  20 03 00 00 02 
   13        8891.1  Rx     1FFFFFF4  2  FF FF 
   14        8891.7  Tx     1FFFFFF1  5  20 03 00 53 02 
   15        8894.0  Rx     1FFFFFF4  2  00 49 
   16        8894.1  Tx     1FFFFFF1  5  20 03 00 4E 01 
   17        8896.5  Rx     1FFFFFF4  1  01 
   18        8896.6  Tx     1FFFFFF1  5  20 03 00 08 08 
   19        8899.2  Rx     1FFFFFF4  8  31 30 38 31 38 32 20 20 
   20        8899.3  Tx     1FFFFFF1  5  20 03 00 10 04 
   21        8902.0  Rx     1FFFFFF4  4  20 20 20 20 
   22        8902.3  Tx     1FFFFFF1  5  20 03 00 7F 08 
   23        8904.9  Rx     1FFFFFF4  8  48 69 67 62 65 61 6D 20 
   24        8905.0  Tx     1FFFFFF1  5  20 03 00 87 08 
   25        8907.6  Rx     1FFFFFF4  8  53 20 20 20 20 20 20 20 
   26        8907.6  Tx     1FFFFFF1  5  20 03 00 8F 08 
   27        8910.2  Rx     1FFFFFF4  8  20 20 20 20 20 20 20 20 
   28        8910.3  Tx     1FFFFFF1  5  20 03 00 97 06 
   29        8912.8  Rx     1FFFFFF4  6  20 20 20 20 20 20 
   30        8912.9  Tx     1FFFFFF1  5  20 03 00 20 08 
   31        8915.5  Rx     1FFFFFF4  8  75 53 50 53 2D 43 41 4E 
   32        8915.9  Tx     1FFFFFF1  5  20 03 00 28 08 
   33        8918.1  Rx     1FFFFFF4  8  20 20 20 20 20 20 20 20 
   34        8918.2  Tx     1FFFFFF1  5  20 03 00 30 04 
   35        8920.6  Rx     1FFFFFF4  4  20 20 20 20 
   36        8920.7  Tx     1FFFFFF1  5  20 03 00 14 08 
   37        8923.3  Rx     1FFFFFF4  8  31 2E 31 30 37 2E 31 31 
   38        8923.6  Tx     1FFFFFF1  5  20 03 00 1C 04 
   39        8925.7  Rx     1FFFFFF4  4  30 2E 30 30 
   40        8925.9  Tx     1FFFFFF1  5  20 03 00 44 02 
   41        8928.3  Rx     1FFFFFF4  2  43 20 
   42        8928.3  Tx     1FFFFFF1  5  20 03 00 6B 08 
   43        8930.9  Rx     1FFFFFF4  8  56 30 2E 30 2E 35 20 20 
   44        8930.9  Tx     1FFFFFF1  5  20 03 00 73 08 
   45        8933.6  Rx     1FFFFFF4  8  20 20 20 20 20 20 20 20 
   46        8933.6  Tx     1FFFFFF1  5  20 03 00 7B 04 
   47        8936.1  Rx     1FFFFFF4  4  20 20 20 20 
   48        8936.3  Tx     1FFFFFF1  5  20 03 00 34 08 
   49        8939.0  Rx     1FFFFFF4  8  31 31 33 31 34 33 38 20 
   50        8939.1  Tx     1FFFFFF1  5  20 03 00 3C 08 
   51        8941.7  Rx     1FFFFFF4  8  32 34 2E 30 31 2E 32 35 
   52        8941.9  Tx     1FFFFFF1  5  20 03 00 55 02 
   53        8944.7  Rx     1FFFFFF4  2  FF 00 
