;$FILEVERSION=1.1
;$STARTTIME=134244247348527960
;
;   Start time: 28.05.2026 08:52:14.852
;   Generated by MRS Applics Flasher V0.9.4
; 
;   Message Number
;   |         Time Offset (ms)
;   |         |        Type
;   |         |        |        ID (hex)
;   |         |        |        |     Data Length
;   |         |        |        |     |   Data Bytes (hex) ...
;   |         |        |        |     |   |
;---+--   ----+----  --+--  ----+---  +  -+ -- -- -- -- -- -- --
    1        9021.0  Tx     1FFFFFF1  2  00 00 
    2        9080.1  Rx     1FFFFFF0  8  00 17 00 F4 6B 04 00 49 
    3       10048.3  Tx     1FFFFFF1  6  20 10 17 00 F4 6B 
    4       10316.6  Rx     1FFFFFF2  8  21 10 17 00 F4 6B 00 49 
    5       10585.6  Tx     1FFFFFF1  5  20 03 00 4E 01 
    6       10588.1  Rx     1FFFFFF4  1  01 
    7       10593.4  Tx     1FFFFFF1  6  20 10 17 00 F4 6B 
    8       10595.8  Rx     1FFFFFF2  8  21 10 17 00 F4 6B 00 49 
    9       10596.5  Tx     1FFFFFF1  5  20 03 00 00 02 
   10       10598.9  Rx     1FFFFFF4  2  FF FF 
   11       10599.1  Tx     1FFFFFF1  5  20 03 00 53 02 
   12       10601.5  Rx     1FFFFFF4  2  00 49 
   13       10601.6  Tx     1FFFFFF1  5  20 03 00 4E 01 
   14       10604.1  Rx     1FFFFFF4  1  01 
   15       10604.3  Tx     1FFFFFF1  5  20 03 00 08 08 
   16       10606.9  Rx     1FFFFFF4  8  31 30 38 31 38 32 20 20 
   17       10607.0  Tx     1FFFFFF1  5  20 03 00 10 04 
   18       10609.6  Rx     1FFFFFF4  4  20 20 20 20 
   19       10609.7  Tx     1FFFFFF1  5  20 03 00 7F 08 
   20       10612.4  Rx     1FFFFFF4  8  48 69 67 62 65 61 6D 20 
   21       10612.5  Tx     1FFFFFF1  5  20 03 00 87 08 
   22       10615.3  Tx     1FFFFFF1  5  20 03 00 8F 08 
   23       10615.4  Rx     1FFFFFF4  8  53 20 20 20 20 20 20 20 
   24       10618.2  Tx     1FFFFFF1  5  20 03 00 97 06 
   25       10618.1  Rx     1FFFFFF4  8  20 20 20 20 20 20 20 20 
   26       10620.7  Rx     1FFFFFF4  6  20 20 20 20 20 20 
   27       10620.8  Tx     1FFFFFF1  5  20 03 00 20 08 
   28       10623.4  Rx     1FFFFFF4  8  75 53 50 53 2D 43 41 4E 
   29       10623.5  Tx     1FFFFFF1  5  20 03 00 28 08 
   30       10631.3  Rx     1FFFFFF4  8  20 20 20 20 20 20 20 20 
   31       10631.5  Tx     1FFFFFF1  5  20 03 00 30 04 
   32       10634.1  Rx     1FFFFFF4  4  20 20 20 20 
   33       10634.2  Tx     1FFFFFF1  5  20 03 00 14 08 
   34       10636.8  Rx     1FFFFFF4  8  31 2E 31 30 37 2E 31 31 
   35       10636.9  Tx     1FFFFFF1  5  20 03 00 1C 04 
   36       10639.5  Rx     1FFFFFF4  4  30 2E 30 30 
   37       10639.5  Tx     1FFFFFF1  5  20 03 00 44 02 
   38       10642.0  Rx     1FFFFFF4  2  43 20 
   39       10642.1  Tx     1FFFFFF1  5  20 03 00 6B 08 
   40       10644.8  Rx     1FFFFFF4  8  56 20 30 2E 31 36 2E 30 
   41       10644.9  Tx     1FFFFFF1  5  20 03 00 73 08 
   42       10647.5  Rx     1FFFFFF4  8  20 20 20 20 20 20 20 20 
   43       10647.5  Tx     1FFFFFF1  5  20 03 00 7B 04 
   44       10650.1  Tx     1FFFFFF1  5  20 03 00 34 08 
   45       10650.1  Rx     1FFFFFF4  4  20 20 20 20 
   46       10652.8  Rx     1FFFFFF4  8  31 31 33 31 34 33 38 20 
   47       10652.9  Tx     1FFFFFF1  5  20 03 00 3C 08 
   48       10655.6  Rx     1FFFFFF4  8  32 34 2E 30 31 2E 32 35 
   49       10655.6  Tx     1FFFFFF1  5  20 03 00 55 02 
   50       10658.1  Rx     1FFFFFF4  2  FB 04 
   51       13021.2  Tx     1FFFFFF1  6  20 10 17 00 F4 6B 
   52       13023.6  Rx     1FFFFFF2  8  21 10 17 00 F4 6B 00 49 
   53       13024.7  Tx     1FFFFFF1  6  20 10 17 00 F4 6B 
   54       13027.1  Rx     1FFFFFF2  8  21 10 17 00 F4 6B 00 49 
   55       13028.0  Tx     1FFFFFF1  5  20 03 00 00 02 
   56       13030.5  Rx     1FFFFFF4  2  FF FF 
   57       13030.6  Tx     1FFFFFF1  5  20 03 00 08 08 
   58       13033.2  Rx     1FFFFFF4  8  31 30 38 31 38 32 20 20 
   59       13033.3  Tx     1FFFFFF1  5  20 03 00 10 04 
   60       13035.8  Rx     1FFFFFF4  4  20 20 20 20 
   61       13035.9  Tx     1FFFFFF1  5  20 03 00 44 02 
   62       13038.4  Rx     1FFFFFF4  2  43 20 
   63       13038.5  Tx     1FFFFFF1  5  20 03 00 6B 08 
   64       13041.2  Rx     1FFFFFF4  8  56 20 30 2E 31 36 2E 30 
   65       13041.3  Tx     1FFFFFF1  5  20 03 00 73 08 
   66       13043.9  Rx     1FFFFFF4  8  20 20 20 20 20 20 20 20 
   67       13044.0  Tx     1FFFFFF1  5  20 03 00 7B 04 
   68       13046.6  Rx     1FFFFFF4  4  20 20 20 20 
   69       13046.7  Tx     1FFFFFF1  5  20 03 00 4E 01 
   70       13049.1  Rx     1FFFFFF4  1  01 
   71       13049.3  Tx     1FFFFFF1  5  20 03 00 7F 08 
   72       13052.0  Rx     1FFFFFF4  8  48 69 67 62 65 61 6D 20 
   73       13052.0  Tx     1FFFFFF1  5  20 03 00 87 08 
   74       13054.7  Rx     1FFFFFF4  8  53 20 20 20 20 20 20 20 
   75       13054.8  Tx     1FFFFFF1  5  20 03 00 8F 08 
   76       13057.6  Rx     1FFFFFF4  8  20 20 20 20 20 20 20 20 
   77       13057.6  Tx     1FFFFFF1  5  20 03 00 97 06 
   78       13060.1  Rx     1FFFFFF4  6  20 20 20 20 20 20 
   79       13060.2  Tx     1FFFFFF1  5  20 03 00 53 02 
   80       13062.6  Rx     1FFFFFF4  2  00 49 
   81       13062.7  Tx     1FFFFFF1  5  20 03 00 4E 01 
   82       13065.1  Rx     1FFFFFF4  1  01 
   83       13080.7  Tx     1FFFFFF1  5  20 03 00 5B 02 
   84       13083.1  Rx     1FFFFFF4  2  FC 03 
   85       13083.8  Tx     1FFFFFF1  6  20 10 17 00 F4 6B 
   86       13086.3  Rx     1FFFFFF2  8  21 10 17 00 F4 6B 00 49 
   87       14873.3  Tx     1FFFFFF1  2  20 00 
   88       14875.9  Rx     1FFFFFF2  8  21 00 17 00 F4 6B 00 49 
   89       14876.0  Tx     1FFFFFF1  6  20 10 17 00 F4 6B 
   90       14878.5  Rx     1FFFFFF2  8  21 10 17 00 F4 6B 00 49 
   91       15240.7  Tx     1FFFFFF1  2  02 02 
   92       15264.6  Rx     1FFFFFF2  4  00 00 36 00 
   93       15286.2  Rx     1FFFFFF2  4  00 01 36 00 
   94       15307.9  Rx     1FFFFFF2  4  00 02 36 00 
   95       15329.1  Rx     1FFFFFF2  4  00 03 36 00 
   96       15350.5  Rx     1FFFFFF2  4  00 04 36 00 
   97       15372.0  Rx     1FFFFFF2  4  00 05 36 00 
   98       15393.4  Rx     1FFFFFF2  4  00 06 36 00 
   99       15415.0  Rx     1FFFFFF2  4  00 07 36 00 
  100       15436.4  Rx     1FFFFFF2  4  00 08 36 00 
  101       15457.8  Rx     1FFFFFF2  4  00 09 36 00 
  102       15479.3  Rx     1FFFFFF2  4  00 0A 36 00 
  103       15500.8  Rx     1FFFFFF2  4  00 0B 36 00 
  104       15522.2  Rx     1FFFFFF2  4  00 0C 36 00 
  105       15543.7  Rx     1FFFFFF2  4  00 0D 36 00 
  106       15565.4  Rx     1FFFFFF2  4  00 0E 36 00 
  107       15586.7  Rx     1FFFFFF2  4  00 0F 36 00 
  108       15608.2  Rx     1FFFFFF2  4  00 10 36 00 
  109       15629.7  Rx     1FFFFFF2  4  00 11 36 00 
  110       15651.2  Rx     1FFFFFF2  4  00 12 36 00 
  111       15672.5  Rx     1FFFFFF2  4  00 13 36 00 
  112       15694.0  Rx     1FFFFFF2  4  00 14 36 00 
  113       15715.4  Rx     1FFFFFF2  4  00 15 36 00 
  114       15737.0  Rx     1FFFFFF2  4  00 16 36 00 
  115       15758.5  Rx     1FFFFFF2  4  00 17 36 00 
  116       15779.8  Rx     1FFFFFF2  4  00 18 36 00 
  117       15801.4  Rx     1FFFFFF2  4  00 19 36 00 
  118       15822.9  Rx     1FFFFFF2  4  00 1A 36 00 
  119       15844.3  Rx     1FFFFFF2  4  00 1B 36 00 
  120       15865.9  Rx     1FFFFFF2  4  00 1C 36 00 
  121       15887.2  Rx     1FFFFFF2  4  00 1D 36 00 
  122       15920.7  Rx     1FFFFFF2  4  00 1E 36 00 
  123       15930.3  Rx     1FFFFFF2  4  00 1F 36 00 
  124       15952.0  Rx     1FFFFFF2  4  00 20 36 00 
  125       15973.1  Rx     1FFFFFF2  4  00 21 36 00 
  126       15994.6  Rx     1FFFFFF2  4  00 22 36 00 
  127       16016.1  Rx     1FFFFFF2  4  00 23 36 00 
  128       16037.5  Rx     1FFFFFF2  4  00 24 36 00 
  129       16059.0  Rx     1FFFFFF2  4  00 25 36 00 
  130       16080.4  Rx     1FFFFFF2  4  00 26 36 00 
  131       16101.9  Rx     1FFFFFF2  4  00 27 36 00 
  132       16123.4  Rx     1FFFFFF2  4  00 28 36 00 
  133       16144.9  Rx     1FFFFFF2  4  00 29 36 00 
  134       16166.3  Rx     1FFFFFF2  4  00 2A 36 00 
  135       16187.7  Rx     1FFFFFF2  4  00 2B 36 00 
  136       16209.3  Rx     1FFFFFF2  4  00 2C 36 00 
  137       16230.7  Rx     1FFFFFF2  4  00 2D 36 00 
  138       16252.4  Rx     1FFFFFF2  4  00 2E 36 00 
  139       16273.9  Rx     1FFFFFF2  4  00 2F 36 00 
  140       16295.3  Rx     1FFFFFF2  4  00 30 36 00 
  141       16316.7  Rx     1FFFFFF2  4  00 31 36 00 
  142       16338.1  Rx     1FFFFFF2  4  00 32 36 00 
  143       16359.5  Rx     1FFFFFF2  4  00 33 36 00 
  144       16381.0  Rx     1FFFFFF2  4  00 34 36 00 
  145       16402.4  Rx     1FFFFFF2  4  00 35 36 00 
  146       16424.1  Rx     1FFFFFF2  4  00 36 36 00 
  147       16445.4  Rx     1FFFFFF2  4  00 00 01 00 
  148       16467.0  Rx     1FFFFFF2  4  00 01 01 00 
  149       16524.8  Rx     1FFFFFF2  4  00 00 00 01 
  150       16914.9  Tx     1FFFFFF1  6  20 10 17 00 F4 6B 
  151       16917.2  Rx     1FFFFFF2  8  21 10 17 00 F4 6B 00 49 
  152       17296.6  Tx     1FFFFFF3  8  53 31 23 22 00 A6 E0 C7 
  153       17299.3  Rx     1FFFFFF2  5  00 01 01 01 01 
  154       17299.5  Tx     1FFFFFF3  8  18 02 4F C7 18 03 A6 1D 
  155       17302.2  Rx     1FFFFFF2  2  00 01 
  156       17302.3  Tx     1FFFFFF3  8  C7 18 09 A6 30 C7 18 0A 
  157       17304.8  Rx     1FFFFFF2  2  00 01 
  158       17305.0  Tx     1FFFFFF3  8  C6 FF AF B7 4A C6 FF AE 
  159       17307.6  Rx     1FFFFFF2  2  00 01 
  160       17307.7  Tx     1FFFFFF3  6  B7 4B 6E 26 49 F1 
  161       17312.4  Rx     1FFFFFF2  3  00 00 01 
  162       17312.5  Tx     1FFFFFF3  8  53 31 23 22 20 6E BA 48 
  163       17315.2  Rx     1FFFFFF2  5  00 01 01 01 01 
  164       17315.3  Tx     1FFFFFF3  8  03 4B FD 08 4B FD B6 4B 
  165       17317.9  Rx     1FFFFFF2  2  00 01 
  166       17318.1  Tx     1FFFFFF3  8  A4 0C A1 08 26 F8 6E 92 
  167       17320.6  Rx     1FFFFFF2  2  00 01 
  168       17320.7  Tx     1FFFFFF3  8  48 6E 45 4C 0B 4B FD 0D 
  169       17323.3  Rx     1FFFFFF2  2  00 01 
  170       17323.5  Tx     1FFFFFF3  6  4B FD C6 24 40 FE 
  171       17328.2  Rx     1FFFFFF2  3  00 00 01 
  172       17329.4  Tx     1FFFFFF3  8  53 31 23 22 40 4B 05 6E 
  173       17332.1  Rx     1FFFFFF2  5  00 01 01 01 01 
  174       17332.3  Tx     1FFFFFF3  8  10 48 20 03 6E 08 48 B6 
  175       17334.8  Rx     1FFFFFF2  2  00 01 
  176       17334.9  Tx     1FFFFFF3  8  4B A4 0C A1 0C 26 F8 CC 
  177       17337.5  Rx     1FFFFFF2  2  00 01 
  178       17337.6  Tx     1FFFFFF3  8  64 9D 00 01 22 5B 7B 54 
  179       17340.4  Rx     1FFFFFF2  2  00 01 
  180       17340.5  Tx     1FFFFFF3  6  01 00 08 EE 00 F6 
  181       17345.3  Rx     1FFFFFF2  3  00 00 01 
  182       17345.4  Tx     1FFFFFF3  8  53 31 23 22 60 00 00 00 
  183       17348.0  Rx     1FFFFFF2  5  00 01 01 01 01 
  184       17348.1  Tx     1FFFFFF3  8  00 00 00 00 01 F4 00 00 
  185       17350.7  Rx     1FFFFFF2  2  00 01 
  186       17350.8  Tx     1FFFFFF3  8  00 02 00 04 00 06 00 08 
  187       17353.3  Rx     1FFFFFF2  2  00 01 
  188       17353.5  Tx     1FFFFFF3  8  00 0A 00 01 00 03 00 05 
  189       17356.1  Rx     1FFFFFF2  2  00 01 
  190       17356.2  Tx     1FFFFFF3  6  00 07 00 09 00 2E 
  191       17361.1  Rx     1FFFFFF2  3  00 00 01 
  192       17361.1  Tx     1FFFFFF3  8  53 31 23 22 80 0B 18 46 
  193       17363.8  Rx     1FFFFFF2  5  00 01 01 01 01 
  194       17363.9  Tx     1FFFFFF3  8  18 4E FF FF 18 5E FF FF 
  195       17366.5  Rx     1FFFFFF2  2  00 01 
  196       17366.6  Tx     1FFFFFF3  8  FF FF 18 40 18 48 18 50 
  197       17369.1  Rx     1FFFFFF2  2  00 01 
  198       17369.2  Tx     1FFFFFF3  8  18 58 18 60 18 68 18 46 
  199       17371.7  Rx     1FFFFFF2  2  00 01 
  200       17371.8  Tx     1FFFFFF3  6  18 4E FF FF 18 99 
  201       17376.3  Rx     1FFFFFF2  3  00 00 01 
  202       17376.3  Tx     1FFFFFF3  8  53 31 23 22 A0 5E FF FF 
  203       17378.9  Rx     1FFFFFF2  5  00 01 01 01 01 
  204       17379.0  Tx     1FFFFFF3  8  FF FF 18 45 18 4D FF FF 
  205       17381.6  Rx     1FFFFFF2  2  00 01 
  206       17381.6  Tx     1FFFFFF3  8  18 5D FF FF FF FF 18 44 
  207       17384.2  Rx     1FFFFFF2  2  00 01 
  208       17384.3  Tx     1FFFFFF3  8  18 4C FF FF 18 5C FF FF 
  209       17386.9  Rx     1FFFFFF2  2  00 01 
  210       17387.0  Tx     1FFFFFF3  6  FF FF 00 00 06 5B 
  211       17391.0  Rx     1FFFFFF2  3  00 00 01 
  212       17391.1  Tx     1FFFFFF3  8  53 31 23 22 C0 25 00 00 
  213       17393.8  Rx     1FFFFFF2  5  00 01 01 01 01 
  214       17393.8  Tx     1FFFFFF3  8  00 00 00 00 00 00 00 06 
  215       17396.4  Rx     1FFFFFF2  2  00 01 
  216       17396.5  Tx     1FFFFFF3  8  00 00 00 00 00 00 00 07 
  217       17399.0  Rx     1FFFFFF2  2  00 01 
  218       17399.1  Tx     1FFFFFF3  8  FF 00 00 00 00 00 00 00 
  219       17401.6  Rx     1FFFFFF2  2  00 01 
  220       17401.7  Tx     1FFFFFF3  6  00 00 08 00 00 C1 
  221       17406.4  Rx     1FFFFFF2  3  00 00 01 
  222       17406.5  Tx     1FFFFFF3  8  53 31 23 22 E0 00 00 00 
  223       17409.1  Rx     1FFFFFF2  5  00 01 01 01 01 
  224       17409.2  Tx     1FFFFFF3  8  00 00 00 00 00 00 00 00 
  225       17411.8  Rx     1FFFFFF2  2  00 01 
  226       17411.8  Tx     1FFFFFF3  8  00 00 00 00 00 00 00 00 
  227       17414.4  Rx     1FFFFFF2  2  00 01 
  228       17414.4  Tx     1FFFFFF3  8  00 00 00 00 00 00 03 00 
  229       17417.0  Rx     1FFFFFF2  2  00 01 
  230       17417.1  Tx     1FFFFFF3  6  01 17 00 17 00 A8 
  231       17421.8  Rx     1FFFFFF2  3  00 00 01 
  232       17421.9  Tx     1FFFFFF3  8  53 31 23 23 00 00 00 00 
  233       17424.6  Rx     1FFFFFF2  5  00 01 01 01 01 
  234       17424.7  Tx     1FFFFFF3  8  00 00 00 01 00 00 06 00 
  235       17427.2  Rx     1FFFFFF2  2  00 01 
  236       17427.3  Tx     1FFFFFF3  8  17 00 17 00 17 00 00 00 
  237       17429.9  Rx     1FFFFFF2  2  00 01 
  238       17429.9  Tx     1FFFFFF3  8  00 00 02 00 01 04 00 17 
  239       17432.6  Rx     1FFFFFF2  2  00 01 
  240       17432.7  Tx     1FFFFFF3  6  00 17 00 17 00 21 
  241       17437.4  Rx     1FFFFFF2  3  00 00 01 
  242       17437.5  Tx     1FFFFFF3  8  53 31 23 23 20 00 00 00 
  243       17440.1  Rx     1FFFFFF2  5  00 01 01 01 01 
  244       17440.2  Tx     1FFFFFF3  8  00 03 00 01 06 00 17 00 
  245       17442.8  Rx     1FFFFFF2  2  00 01 
  246       17442.9  Tx     1FFFFFF3  8  17 00 17 00 00 00 00 00 
  247       17445.4  Rx     1FFFFFF2  2  00 01 
  248       17445.4  Tx     1FFFFFF3  8  04 00 05 03 00 17 00 17 
  249       17448.0  Rx     1FFFFFF2  2  00 01 
  250       17448.1  Tx     1FFFFFF3  6  00 17 00 00 00 F9 
  251       17452.8  Rx     1FFFFFF2  3  00 00 01 
  252       17452.8  Tx     1FFFFFF3  8  53 31 23 23 40 00 00 05 
  253       17455.5  Rx     1FFFFFF2  5  00 01 01 01 01 
  254       17455.5  Tx     1FFFFFF3  8  00 00 00 00 00 00 00 00 
  255       17458.1  Rx     1FFFFFF2  2  00 01 
  256       17458.2  Tx     1FFFFFF3  8  00 00 00 00 00 00 06 00 
  257       17460.8  Rx     1FFFFFF2  2  00 01 
  258       17460.9  Tx     1FFFFFF3  8  03 07 01 17 00 17 00 00 
  259       17463.5  Rx     1FFFFFF2  2  00 01 
  260       17463.6  Tx     1FFFFFF3  6  00 00 00 00 00 35 
  261       17468.4  Rx     1FFFFFF2  3  00 00 01 
  262       17468.5  Tx     1FFFFFF3  8  53 31 23 23 60 07 00 03 
  263       17471.2  Rx     1FFFFFF2  5  00 01 01 01 01 
  264       17471.3  Tx     1FFFFFF3  8  06 01 17 00 17 00 00 00 
  265       17473.9  Rx     1FFFFFF2  2  00 01 
  266       17474.1  Tx     1FFFFFF3  8  00 00 00 00 08 00 04 00 
  267       17476.7  Rx     1FFFFFF2  2  00 01 
  268       17476.8  Tx     1FFFFFF3  8  01 17 00 17 00 00 00 00 
  269       17479.3  Rx     1FFFFFF2  2  00 01 
  270       17479.4  Tx     1FFFFFF3  6  00 00 00 09 00 D6 
  271       17484.2  Rx     1FFFFFF2  3  00 00 01 
  272       17484.3  Tx     1FFFFFF3  8  53 31 23 23 80 04 04 01 
  273       17487.0  Rx     1FFFFFF2  5  00 01 01 01 01 
  274       17487.1  Tx     1FFFFFF3  8  17 00 17 00 00 00 00 00 
  275       17489.8  Rx     1FFFFFF2  2  00 01 
  276       17490.0  Tx     1FFFFFF3  8  00 00 0A 00 05 00 01 17 
  277       17492.6  Rx     1FFFFFF2  2  00 01 
  278       17492.7  Tx     1FFFFFF3  8  00 17 00 01 00 00 00 00 
  279       17495.3  Rx     1FFFFFF2  2  00 01 
  280       17495.4  Tx     1FFFFFF3  6  00 0B 00 05 02 B1 
  281       17500.1  Rx     1FFFFFF2  3  00 00 01 
  282       17500.2  Tx     1FFFFFF3  8  53 31 23 23 A0 01 17 00 
  283       17502.8  Rx     1FFFFFF2  5  00 01 01 01 01 
  284       17502.9  Tx     1FFFFFF3  8  17 00 01 00 00 00 00 00 
  285       17505.6  Rx     1FFFFFF2  2  00 01 
  286       17505.7  Tx     1FFFFFF3  8  0C 00 04 05 01 17 00 17 
  287       17508.2  Rx     1FFFFFF2  2  00 01 
  288       17508.3  Tx     1FFFFFF3  8  00 00 00 00 00 00 00 0D 
  289       17510.9  Rx     1FFFFFF2  2  00 01 
  290       17511.0  Tx     1FFFFFF3  6  00 03 02 01 17 7B 
  291       17515.7  Rx     1FFFFFF2  3  00 00 01 
  292       17515.8  Tx     1FFFFFF3  8  53 31 23 23 C0 00 17 00 
  293       17518.4  Rx     1FFFFFF2  5  00 01 01 01 01 
  294       17518.5  Tx     1FFFFFF3  8  00 00 00 00 00 00 0E 00 
  295       17521.1  Rx     1FFFFFF2  2  00 01 
  296       17521.2  Tx     1FFFFFF3  8  00 00 00 00 00 00 00 00 
  297       17523.8  Rx     1FFFFFF2  2  00 01 
  298       17523.9  Tx     1FFFFFF3  8  00 00 00 00 00 00 06 00 
  299       17526.6  Rx     1FFFFFF2  2  00 01 
  300       17526.6  Tx     1FFFFFF3  6  00 17 00 00 00 B7 
  301       17531.4  Rx     1FFFFFF2  3  00 00 01 
  302       17531.5  Tx     1FFFFFF3  8  53 31 23 23 E0 00 00 00 
  303       17534.1  Rx     1FFFFFF2  5  00 01 01 01 01 
  304       17534.2  Tx     1FFFFFF3  8  2C 88 00 00 00 00 00 01 
  305       17536.8  Rx     1FFFFFF2  2  00 01 
  306       17536.8  Tx     1FFFFFF3  8  0C 00 00 17 00 00 00 00 
  307       17539.5  Rx     1FFFFFF2  2  00 01 
  308       17539.6  Tx     1FFFFFF3  8  00 00 2C 88 00 00 00 00 
  309       17542.2  Rx     1FFFFFF2  2  00 01 
  310       17542.3  Tx     1FFFFFF3  6  00 02 0E 00 00 3D 
  311       17550.9  Rx     1FFFFFF2  3  00 00 01 
  312       17551.0  Tx     1FFFFFF3  8  53 31 23 24 00 17 00 00 
  313       17553.6  Rx     1FFFFFF2  5  00 01 01 01 01 
  314       17553.7  Tx     1FFFFFF3  8  00 00 00 00 2C 88 00 00 
  315       17556.4  Rx     1FFFFFF2  2  00 01 
  316       17556.5  Tx     1FFFFFF3  8  00 00 00 03 07 00 00 17 
  317       17559.0  Rx     1FFFFFF2  2  00 01 
  318       17559.1  Tx     1FFFFFF3  8  00 00 00 00 00 00 00 00 
  319       17561.7  Rx     1FFFFFF2  2  00 01 
  320       17561.8  Tx     1FFFFFF3  6  00 00 00 00 00 CC 
  321       17566.6  Rx     1FFFFFF2  3  00 00 01 
  322       17566.7  Tx     1FFFFFF3  8  53 31 23 24 20 04 00 00 
  323       17569.3  Rx     1FFFFFF2  5  00 01 01 01 01 
  324       17569.4  Tx     1FFFFFF3  8  00 00 00 00 00 00 00 00 
  325       17571.9  Rx     1FFFFFF2  2  00 01 
  326       17572.0  Tx     1FFFFFF3  8  00 00 00 00 00 00 00 00 
  327       17574.5  Rx     1FFFFFF2  2  00 01 
  328       17574.6  Tx     1FFFFFF3  8  00 00 00 00 00 00 00 00 
  329       17577.1  Rx     1FFFFFF2  2  00 01 
  330       17577.2  Tx     1FFFFFF3  6  00 00 00 00 00 94 
  331       17582.0  Rx     1FFFFFF2  3  00 00 01 
  332       17582.1  Tx     1FFFFFF3  8  53 31 23 24 40 00 00 00 
  333       17584.8  Rx     1FFFFFF2  5  00 01 01 01 01 
  334       17584.9  Tx     1FFFFFF3  8  06 25 00 00 06 25 01 70 
  335       17587.4  Rx     1FFFFFF2  2  00 01 
  336       17587.5  Tx     1FFFFFF3  8  FF 60 02 00 00 00 00 00 
  337       17590.1  Rx     1FFFFFF2  2  00 01 
  338       17590.2  Tx     1FFFFFF3  8  00 04 7F 00 00 04 7F 01 
  339       17592.8  Rx     1FFFFFF2  2  00 01 
  340       17592.9  Tx     1FFFFFF3  6  80 FF 00 03 00 C7 
  341       17597.7  Rx     1FFFFFF2  3  00 00 01 
  342       17597.7  Tx     1FFFFFF3  8  53 31 23 24 60 00 00 00 
  343       17600.4  Rx     1FFFFFF2  5  00 01 01 01 01 
  344       17600.4  Tx     1FFFFFF3  8  00 00 02 3A 00 00 02 3A 
  345       17603.1  Rx     1FFFFFF2  2  00 01 
  346       17603.2  Tx     1FFFFFF3  8  00 A0 FF 20 04 00 00 00 
  347       17605.7  Rx     1FFFFFF2  2  00 01 
  348       17605.8  Tx     1FFFFFF3  8  00 00 00 01 00 00 00 01 
  349       17608.5  Rx     1FFFFFF2  2  00 01 
  350       17608.6  Tx     1FFFFFF3  6  00 04 40 40 00 97 
  351       17613.3  Rx     1FFFFFF2  3  00 00 01 
  352       17613.4  Tx     1FFFFFF3  8  53 31 23 24 80 05 00 00 
  353       17616.1  Rx     1FFFFFF2  5  00 01 01 01 01 
  354       17616.2  Tx     1FFFFFF3  8  00 00 00 00 01 00 00 00 
  355       17618.8  Rx     1FFFFFF2  2  00 01 
  356       17618.9  Tx     1FFFFFF3  8  01 00 01 01 FF 00 06 00 
  357       17621.6  Rx     1FFFFFF2  2  00 01 
  358       17621.7  Tx     1FFFFFF3  8  00 00 00 00 00 01 00 00 
  359       17624.3  Rx     1FFFFFF2  2  00 01 
  360       17624.4  Tx     1FFFFFF3  6  00 01 00 01 15 12 
  361       17629.2  Rx     1FFFFFF2  3  00 00 01 
  362       17629.3  Tx     1FFFFFF3  8  53 31 23 24 A0 FF 14 07 
  363       17632.2  Rx     1FFFFFF2  5  00 01 01 01 01 
  364       17632.2  Tx     1FFFFFF3  8  00 00 00 00 00 00 06 22 
  365       17634.6  Rx     1FFFFFF2  2  00 01 
  366       17637.2  Rx     1FFFFFF2  2  00 01 
  367       17648.9  Tx     1FFFFFF3  8  00 00 02 FB 03 40 40 00 
  368       17649.1  Tx     1FFFFFF3  8  0D 00 00 00 00 00 00 06 
  369       17651.7  Rx     1FFFFFF2  2  00 01 
  370       17652.3  Tx     1FFFFFF3  6  22 00 00 06 22 F9 
  371       17656.5  Rx     1FFFFFF2  3  00 00 01 
  372       17656.7  Tx     1FFFFFF3  8  53 31 23 24 C0 03 40 40 
  373       17659.3  Rx     1FFFFFF2  5  00 01 01 01 01 
  374       17659.5  Tx     1FFFFFF3  8  30 08 00 00 00 00 00 00 
  375       17662.1  Rx     1FFFFFF2  2  00 01 
  376       17662.2  Tx     1FFFFFF3  8  04 1A 00 00 04 1A 05 04 
  377       17664.7  Rx     1FFFFFF2  2  00 01 
  378       17664.8  Tx     1FFFFFF3  8  04 41 09 00 00 00 00 00 
  379       17667.4  Rx     1FFFFFF2  2  00 01 
  380       17667.5  Tx     1FFFFFF3  6  00 02 8F 00 00 19 
  381       17672.4  Rx     1FFFFFF2  3  00 00 01 
  382       17672.5  Tx     1FFFFFF3  8  53 31 23 24 E0 02 8F 00 
  383       17675.2  Rx     1FFFFFF2  5  00 01 01 01 01 
  384       17675.4  Tx     1FFFFFF3  8  69 FF 82 0A 00 00 00 00 
  385       17678.0  Rx     1FFFFFF2  2  00 01 
  386       17678.1  Tx     1FFFFFF3  8  00 00 00 DD 00 00 00 DD 
  387       17680.7  Rx     1FFFFFF2  2  00 01 
  388       17680.8  Tx     1FFFFFF3  8  05 00 00 00 0B 27 A3 00 
  389       17683.3  Rx     1FFFFFF2  2  00 01 
  390       17683.4  Tx     1FFFFFF3  6  00 00 00 06 12 A7 
  391       17688.2  Rx     1FFFFFF2  3  00 00 01 
  392       17688.2  Tx     1FFFFFF3  8  53 31 23 25 00 00 00 06 
  393       17691.0  Rx     1FFFFFF2  5  00 01 01 01 01 
  394       17691.1  Tx     1FFFFFF3  8  12 01 00 00 00 0C 27 98 
  395       17693.7  Rx     1FFFFFF2  2  00 01 
  396       17693.8  Tx     1FFFFFF3  8  00 00 00 00 01 94 00 00 
  397       17696.3  Rx     1FFFFFF2  2  00 01 
  398       17696.4  Tx     1FFFFFF3  8  01 94 00 00 00 00 0E 27 
  399       17699.0  Rx     1FFFFFF2  2  00 01 
  400       17699.1  Tx     1FFFFFF3  6  CC 00 00 00 00 A8 
  401       17703.9  Rx     1FFFFFF2  3  00 00 01 
  402       17703.9  Tx     1FFFFFF3  8  53 31 23 25 20 02 52 00 
  403       17706.7  Rx     1FFFFFF2  5  00 01 01 01 01 
  404       17706.7  Tx     1FFFFFF3  8  00 02 52 00 01 01 6C 0F 
  405       17709.3  Rx     1FFFFFF2  2  00 01 
  406       17709.4  Tx     1FFFFFF3  8  00 00 00 00 00 00 02 3B 
  407       17712.0  Rx     1FFFFFF2  2  00 01 
  408       17712.1  Tx     1FFFFFF3  8  00 00 02 66 01 80 80 60 
  409       17714.6  Rx     1FFFFFF2  2  00 01 
  410       17714.7  Tx     1FFFFFF3  6  10 00 00 02 EE 6C 
  411       17719.5  Rx     1FFFFFF2  3  00 00 01 
  412       17719.5  Tx     1FFFFFF3  8  53 31 23 25 40 00 00 00 
  413       17722.2  Rx     1FFFFFF2  5  00 01 01 01 01 
  414       17722.3  Tx     1FFFFFF3  8  69 00 00 00 69 02 00 00 
  415       17724.8  Rx     1FFFFFF2  2  00 01 
  416       17724.9  Tx     1FFFFFF3  8  00 11 27 D6 00 00 02 0D 
  417       17727.4  Rx     1FFFFFF2  2  00 01 
  418       17727.5  Tx     1FFFFFF3  8  02 02 00 02 07 02 02 01 
  419       17730.1  Rx     1FFFFFF2  2  00 01 
  420       17730.2  Tx     1FFFFFF3  6  01 10 08 03 01 57 
  421       17734.9  Rx     1FFFFFF2  3  00 00 01 
  422       17735.0  Tx     1FFFFFF3  8  53 31 23 25 60 01 05 02 
  423       17737.6  Rx     1FFFFFF2  5  00 01 01 01 01 
  424       17737.7  Tx     1FFFFFF3  8  02 00 01 0D 02 02 00 02 
  425       17740.3  Rx     1FFFFFF2  2  00 01 
  426       17740.4  Tx     1FFFFFF3  8  0D 02 02 00 05 0D 02 02 
  427       17742.9  Rx     1FFFFFF2  2  00 01 
  428       17743.0  Tx     1FFFFFF3  8  00 14 07 02 02 00 19 0C 
  429       17745.6  Rx     1FFFFFF2  2  00 01 
  430       17745.6  Tx     1FFFFFF3  6  03 03 00 02 10 B6 
  431       17750.4  Rx     1FFFFFF2  3  00 00 01 
  432       17750.4  Tx     1FFFFFF3  8  53 31 23 25 80 03 03 00 
  433       17753.1  Rx     1FFFFFF2  5  00 01 01 01 01 
  434       17753.2  Tx     1FFFFFF3  8  03 0D 02 02 00 06 10 03 
  435       17755.8  Rx     1FFFFFF2  2  00 01 
  436       17755.9  Tx     1FFFFFF3  8  03 00 04 0D 02 02 00 01 
  437       17758.5  Rx     1FFFFFF2  2  00 01 
  438       17758.6  Tx     1FFFFFF3  8  05 02 02 00 01 07 02 02 
  439       17761.1  Rx     1FFFFFF2  2  00 01 
  440       17761.2  Tx     1FFFFFF3  6  00 01 0D 02 02 C4 
  441       17766.0  Rx     1FFFFFF2  3  00 00 01 
  442       17766.1  Tx     1FFFFFF3  8  53 31 23 25 A0 00 02 0D 
  443       17768.7  Rx     1FFFFFF2  5  00 01 01 01 01 
  444       17768.8  Tx     1FFFFFF3  8  02 02 00 04 0D 02 02 00 
  445       17771.4  Rx     1FFFFFF2  2  00 01 
  446       17771.6  Tx     1FFFFFF3  8  0A 0D 02 02 00 28 07 02 
  447       17774.3  Rx     1FFFFFF2  2  00 01 
  448       17774.3  Tx     1FFFFFF3  8  02 00 28 10 03 03 00 04 
  449       17776.9  Rx     1FFFFFF2  2  00 01 
  450       17777.0  Tx     1FFFFFF3  6  10 03 03 00 06 43 
  451       17781.8  Rx     1FFFFFF2  3  00 00 01 
  452       17781.9  Tx     1FFFFFF3  8  53 31 23 25 C0 0D 02 02 
  453       17784.5  Rx     1FFFFFF2  5  00 01 01 01 01 
  454       17784.6  Tx     1FFFFFF3  8  00 0C 10 03 03 00 01 02 
  455       17787.2  Rx     1FFFFFF2  2  00 01 
  456       17787.3  Tx     1FFFFFF3  8  04 08 10 20 40 80 00 39 
  457       17789.9  Rx     1FFFFFF2  2  00 01 
  458       17790.0  Tx     1FFFFFF3  8  00 38 00 3A 00 3B 00 3E 
  459       17792.6  Rx     1FFFFFF2  2  00 01 
  460       17792.7  Tx     1FFFFFF3  6  00 3C 00 3D 00 28 
  461       17797.6  Rx     1FFFFFF2  3  00 00 01 
  462       17797.7  Tx     1FFFFFF3  8  53 31 23 25 E0 3F 00 41 
  463       17800.3  Rx     1FFFFFF2  5  00 01 01 01 01 
  464       17800.4  Tx     1FFFFFF3  8  00 40 00 42 00 43 00 46 
  465       17803.0  Rx     1FFFFFF2  2  00 01 
  466       17803.1  Tx     1FFFFFF3  8  00 44 00 45 00 47 56 30 
  467       17805.8  Rx     1FFFFFF2  2  00 01 
  468       17805.8  Tx     1FFFFFF3  8  2E 30 2E 30 20 20 20 20 
  469       17808.4  Rx     1FFFFFF2  2  00 01 
  470       17808.6  Tx     1FFFFFF3  6  20 20 20 20 20 1A 
  471       17813.3  Rx     1FFFFFF2  3  00 00 01 
  472       17813.4  Tx     1FFFFFF3  8  53 31 23 26 00 20 20 20 
  473       17816.0  Rx     1FFFFFF2  5  00 01 01 01 01 
  474       17816.1  Tx     1FFFFFF3  8  20 20 00 8B AE 05 8C 96 
  475       17818.7  Rx     1FFFFFF2  2  00 01 
  476       17818.8  Tx     1FFFFFF3  8  02 0C A6 01 C7 02 0E 54 
  477       17821.4  Rx     1FFFFFF2  2  00 01 
  478       17821.5  Tx     1FFFFFF3  8  96 02 0F AE 05 CF 02 11 
  479       17824.1  Rx     1FFFFFF2  2  00 01 
  480       17824.2  Tx     1FFFFFF3  6  AE 0E CF 02 12 FB 
  481       17829.0  Rx     1FFFFFF2  3  00 00 01 
  482       17829.0  Tx     1FFFFFF3  8  53 31 23 26 20 AE 04 CF 
  483       17831.7  Rx     1FFFFFF2  5  00 01 01 01 01 
  484       17831.7  Tx     1FFFFFF3  8  02 13 5F CF 02 14 C7 02 
  485       17834.3  Rx     1FFFFFF2  2  00 01 
  486       17834.4  Tx     1FFFFFF3  8  15 C7 02 16 A6 05 C7 02 
  487       17837.0  Rx     1FFFFFF2  2  00 01 
  488       17837.1  Tx     1FFFFFF3  8  17 44 C7 02 18 CF 02 19 
  489       17839.7  Rx     1FFFFFF2  2  00 01 
  490       17839.8  Tx     1FFFFFF3  6  CF 02 1A A6 06 CE 
  491       17844.5  Rx     1FFFFFF2  3  00 00 01 
  492       17844.6  Tx     1FFFFFF3  8  53 31 23 26 40 C7 02 1B 
  493       17847.3  Rx     1FFFFFF2  5  00 01 01 01 01 
  494       17847.3  Tx     1FFFFFF3  8  CF 02 1E C7 02 1F 5C 96 
  495       17849.9  Rx     1FFFFFF2  2  00 01 
  496       17850.0  Tx     1FFFFFF3  8  02 1C A6 38 C7 02 31 A6 
  497       17852.5  Rx     1FFFFFF2  2  00 01 
  498       17852.6  Tx     1FFFFFF3  8  0A C7 02 32 A6 15 C7 02 
  499       17855.1  Rx     1FFFFFF2  2  00 01 
  500       17855.2  Tx     1FFFFFF3  6  33 A6 50 C7 02 B2 
  501       17860.0  Rx     1FFFFFF2  3  00 00 01 
  502       17860.1  Tx     1FFFFFF3  8  53 31 23 26 60 34 A6 1E 
  503       17862.7  Rx     1FFFFFF2  5  00 01 01 01 01 
  504       17862.8  Tx     1FFFFFF3  8  C7 07 65 C7 07 66 A6 05 
  505       17865.4  Rx     1FFFFFF2  2  00 01 
  506       17865.4  Tx     1FFFFFF3  8  C7 07 B2 95 7F F6 AE 16 
  507       17868.0  Rx     1FFFFFF2  2  00 01 
  508       17868.1  Tx     1FFFFFF3  8  42 8C 97 4F D7 02 BE A6 
  509       17870.7  Rx     1FFFFFF2  2  00 01 
  510       17870.8  Tx     1FFFFFF3  6  E8 D7 02 C4 A6 E2 
  511       17875.6  Rx     1FFFFFF2  3  00 00 01 
  512       17875.6  Tx     1FFFFFF3  8  53 31 23 26 80 03 D7 02 
  513       17878.3  Rx     1FFFFFF2  5  00 01 01 01 01 
  514       17878.4  Tx     1FFFFFF3  8  C3 95 7C F6 A1 06 25 E5 
  515       17880.9  Rx     1FFFFFF2  2  00 01 
  516       17881.0  Tx     1FFFFFF3  8  4F C7 09 31 C7 09 32 A6 
  517       17883.6  Rx     1FFFFFF2  2  00 01 
  518       17883.7  Tx     1FFFFFF3  8  04 C7 02 20 45 06 25 96 
  519       17886.3  Rx     1FFFFFF2  2  00 01 
  520       17886.4  Tx     1FFFFFF3  6  02 23 5F 8C 96 4E 
  521       17891.2  Rx     1FFFFFF2  3  00 00 01 
  522       17891.3  Tx     1FFFFFF3  8  53 31 23 26 A0 02 21 96 
  523       17900.3  Rx     1FFFFFF2  5  00 01 01 01 01 
  524       17900.3  Tx     1FFFFFF3  8  02 2B 96 02 29 45 06 25 
  525       17902.9  Rx     1FFFFFF2  2  00 01 
  526       17903.0  Tx     1FFFFFF3  8  96 02 27 5F 8C 96 02 25 
  527       17905.6  Rx     1FFFFFF2  2  00 01 
  528       17905.7  Tx     1FFFFFF3  8  96 02 2F 96 02 2D 95 7F 
  529       17908.3  Rx     1FFFFFF2  2  00 01 
  530       17908.4  Tx     1FFFFFF3  6  20 0C F6 AE 09 1F 
  531       17913.1  Rx     1FFFFFF2  3  00 00 01 
  532       17913.2  Tx     1FFFFFF3  8  53 31 23 26 C0 42 8C 97 
  533       17915.9  Rx     1FFFFFF2  5  00 01 01 01 01 
  534       17916.0  Tx     1FFFFFF3  8  4F D7 03 AB 95 7C C6 02 
  535       17918.6  Rx     1FFFFFF2  2  00 01 
  536       17918.7  Tx     1FFFFFF3  8  1F F1 22 EE A6 01 C7 01 
  537       17921.3  Rx     1FFFFFF2  2  00 01 
  538       17921.4  Tx     1FFFFFF3  8  CE 4F C7 09 4D 8A 81 89 
  539       17924.1  Rx     1FFFFFF2  2  00 01 
  540       17924.1  Tx     1FFFFFF3  6  8B 9E FE 07 89 D0 
  541       17928.9  Rx     1FFFFFF2  3  00 00 01 
  542       17929.0  Tx     1FFFFFF3  8  53 31 23 26 E0 8B 9E FE 
  543       17931.7  Rx     1FFFFFF2  5  00 01 01 01 01 
  544       17931.7  Tx     1FFFFFF3  8  07 89 8B 9E FE 05 CD 4A 
  545       17934.3  Rx     1FFFFFF2  2  00 01 
  546       17934.3  Tx     1FFFFFF3  8  95 A7 06 81 81 81 81 81 
  547       17936.9  Rx     1FFFFFF2  2  00 01 
  548       17937.0  Tx     1FFFFFF3  8  81 81 81 81 81 81 81 8B 
  549       17939.6  Rx     1FFFFFF2  2  00 01 
  550       17939.7  Tx     1FFFFFF3  6  95 7F 20 14 FE BD 
  551       17944.5  Rx     1FFFFFF2  3  00 00 01 
  552       17944.6  Tx     1FFFFFF3  8  53 31 23 27 00 58 8C 9E 
  553       17947.2  Rx     1FFFFFF2  5  00 01 01 01 01 
  554       17947.3  Tx     1FFFFFF3  8  BE 22 B1 C6 25 CC F4 27 
  555       17949.8  Rx     1FFFFFF2  2  00 01 
  556       17949.9  Tx     1FFFFFF3  8  05 C6 25 CB FA F7 95 7C 
  557       17952.6  Rx     1FFFFFF2  2  00 01 
  558       17952.7  Tx     1FFFFFF3  8  C6 02 1B F1 22 E6 8A 81 
  559       17955.2  Rx     1FFFFFF2  2  00 01 
  560       17955.3  Tx     1FFFFFF3  6  A7 FE 9E FF 01 E9 
  561       17960.1  Rx     1FFFFFF2  3  00 00 01 
  562       17960.1  Tx     1FFFFFF3  8  53 31 23 27 20 CD B0 00 
  563       17962.7  Rx     1FFFFFF2  5  00 01 01 01 01 
  564       17962.8  Tx     1FFFFFF3  8  9E FE 01 CD 2C B6 A6 01 
  565       17965.4  Rx     1FFFFFF2  2  00 01 
  566       17965.5  Tx     1FFFFFF3  8  C7 01 C3 A7 02 81 CC B1 
  567       17968.1  Rx     1FFFFFF2  2  00 01 
  568       17968.2  Tx     1FFFFFF3  8  F2 81 81 81 81 81 A7 FC 
  569       17970.8  Rx     1FFFFFF2  2  00 01 
  570       17970.9  Tx     1FFFFFF3  6  9B 95 89 8B AE E7 
  571       17975.7  Rx     1FFFFFF2  3  00 00 01 
  572       17975.8  Tx     1FFFFFF3  8  53 31 23 27 40 1E 8C 89 
  573       17978.4  Rx     1FFFFFF2  5  00 01 01 01 01 
  574       17978.5  Tx     1FFFFFF3  8  8B 4F 87 87 CD 51 0E A7 
  575       17981.1  Rx     1FFFFFF2  2  00 01 
  576       17981.2  Tx     1FFFFFF3  8  06 AE 0B 8C 4F CD 60 9C 
  577       17983.7  Rx     1FFFFFF2  2  00 01 
  578       17983.8  Tx     1FFFFFF3  8  95 89 8B A6 1E 87 4F 87 
  579       17986.3  Rx     1FFFFFF2  2  00 01 
  580       17986.4  Tx     1FFFFFF3  6  87 87 CD 51 0E 20 
  581       17991.2  Rx     1FFFFFF2  3  00 00 01 
  582       17991.3  Tx     1FFFFFF3  8  53 31 23 27 60 A7 06 AE 
  583       17993.9  Rx     1FFFFFF2  5  00 01 01 01 01 
  584       17994.0  Tx     1FFFFFF3  8  0A 8C 4F CD 60 9C AE 0D 
  585       17996.5  Rx     1FFFFFF2  2  00 01 
  586       17996.6  Tx     1FFFFFF3  8  8C 4F CD 60 9C 95 89 8B 
  587       17999.2  Rx     1FFFFFF2  2  00 01 
  588       17999.3  Tx     1FFFFFF3  8  45 1B 58 89 8B 4F 87 87 
  589       18001.9  Rx     1FFFFFF2  2  00 01 
  590       18001.9  Tx     1FFFFFF3  6  CD 51 0E A7 06 42 
  591       18006.7  Rx     1FFFFFF2  3  00 00 01 
  592       18006.8  Tx     1FFFFFF3  8  53 31 23 27 80 AE 0D AD 
  593       18009.4  Rx     1FFFFFF2  5  00 01 01 01 01 
  594       18009.5  Tx     1FFFFFF3  8  0C AE 0B AD 08 AE 0A AD 
  595       18012.1  Rx     1FFFFFF2  2  00 01 
  596       18012.2  Tx     1FFFFFF3  8  04 9A A7 04 81 8C A6 01 
  597       18014.8  Rx     1FFFFFF2  2  00 01 
  598       18014.8  Tx     1FFFFFF3  8  CC 60 9C 81 81 E6 01 A5 
  599       18017.5  Rx     1FFFFFF2  2  00 01 
  600       18017.5  Tx     1FFFFFF3  6  04 26 02 4F 81 9F 
  601       18022.3  Rx     1FFFFFF2  3  00 00 01 
  602       18022.4  Tx     1FFFFFF3  8  53 31 23 27 A0 A6 01 81 
  603       18025.2  Rx     1FFFFFF2  5  00 01 01 01 01 
  604       18025.3  Tx     1FFFFFF3  8  87 E6 04 41 84 0A A1 04 
  605       18027.8  Rx     1FFFFFF2  2  00 01 
  606       18027.9  Tx     1FFFFFF3  8  26 0A E6 05 A1 80 26 04 
  607       18030.5  Rx     1FFFFFF2  2  00 01 
  608       18030.6  Tx     1FFFFFF3  8  A6 01 8A 81 6D 04 27 0A 
  609       18033.2  Rx     1FFFFFF2  2  00 01 
  610       18033.2  Tx     1FFFFFF3  6  E6 04 A1 04 26 99 
  611       18038.0  Rx     1FFFFFF2  3  00 00 01 
  612       18038.1  Tx     1FFFFFF3  8  53 31 23 27 C0 07 6D 05 
  613       18040.7  Rx     1FFFFFF2  5  00 01 01 01 01 
  614       18040.8  Tx     1FFFFFF3  8  26 03 4F 8A 81 95 F6 8A 
  615       18043.4  Rx     1FFFFFF2  2  00 01 
  616       18043.6  Tx     1FFFFFF3  8  81 F6 A5 40 26 02 4F 81 
  617       18046.1  Rx     1FFFFFF2  2  00 01 
  618       18046.3  Tx     1FFFFFF3  8  A6 01 81 E6 02 A5 18 26 
  619       18048.8  Rx     1FFFFFF2  2  00 01 
  620       18048.9  Tx     1FFFFFF3  6  02 4F 81 A6 01 24 
  621       18053.7  Rx     1FFFFFF2  3  00 00 01 
  622       18053.8  Tx     1FFFFFF3  8  53 31 23 27 E0 81 4F C7 
  623       18056.5  Rx     1FFFFFF2  5  00 01 01 01 01 
  624       18056.7  Tx     1FFFFFF3  8  02 20 9E FE 09 96 02 23 
  625       18059.2  Rx     1FFFFFF2  2  00 01 
  626       18059.4  Tx     1FFFFFF3  8  9E FE 07 96 02 21 9E FE 
  627       18061.9  Rx     1FFFFFF2  2  00 01 
  628       18062.0  Tx     1FFFFFF3  8  05 96 02 27 9E FE 03 96 
  629       18064.6  Rx     1FFFFFF2  2  00 01 
  630       18064.7  Tx     1FFFFFF3  6  02 25 8C 5F 96 23 
  631       18069.4  Rx     1FFFFFF2  3  00 00 01 
  632       18069.5  Tx     1FFFFFF3  8  53 31 23 28 00 02 2B 96 
  633       18072.2  Rx     1FFFFFF2  5  00 01 01 01 01 
  634       18072.3  Tx     1FFFFFF3  8  02 29 96 02 2F 96 02 2D 
  635       18075.0  Rx     1FFFFFF2  2  00 01 
  636       18075.1  Tx     1FFFFFF3  8  CC 49 C1 A6 04 C7 02 20 
  637       18077.7  Rx     1FFFFFF2  2  00 01 
  638       18077.8  Tx     1FFFFFF3  8  5F 8C 96 02 23 96 02 21 
  639       18080.4  Rx     1FFFFFF2  2  00 01 
  640       18080.5  Tx     1FFFFFF3  6  96 02 27 96 02 1B 
  641       18085.4  Rx     1FFFFFF2  3  00 00 01 
  642       18085.5  Tx     1FFFFFF3  8  53 31 23 28 20 25 45 FF 
  643       18088.1  Rx     1FFFFFF2  5  00 01 01 01 01 
  644       18088.3  Tx     1FFFFFF3  8  FF 96 02 2B 89 8A 96 02 
  645       18090.9  Rx     1FFFFFF2  2  00 01 
  646       18091.0  Tx     1FFFFFF3  8  29 89 8A 96 02 2F 89 8A 
  647       18093.6  Rx     1FFFFFF2  2  00 01 
  648       18093.7  Tx     1FFFFFF3  8  96 02 2D 4F CC 49 C1 89 
  649       18096.3  Rx     1FFFFFF2  2  00 01 
  650       18096.4  Tx     1FFFFFF3  6  8B A7 FD 9E FE 6A 
  651       18101.1  Rx     1FFFFFF2  3  00 00 01 
  652       18101.2  Tx     1FFFFFF3  8  53 31 23 28 40 08 9E CE 
  653       18103.9  Rx     1FFFFFF2  5  00 01 01 01 01 
  654       18104.0  Tx     1FFFFFF3  8  0D 27 15 9E FF 01 9E FE 
  655       18106.6  Rx     1FFFFFF2  2  00 01 
  656       18106.7  Tx     1FFFFFF3  8  04 89 8B 9E FE 03 CD 34 
  657       18109.3  Rx     1FFFFFF2  2  00 01 
  658       18109.3  Tx     1FFFFFF3  8  C6 4D 27 2F A6 01 20 2B 
  659       18111.9  Rx     1FFFFFF2  2  00 01 
  660       18111.9  Tx     1FFFFFF3  6  9E FE 08 E6 08 D8 
  661       18116.7  Rx     1FFFFFF2  3  00 00 01 
  662       18116.8  Tx     1FFFFFF3  8  53 31 23 28 60 95 EB 04 
  663       18119.3  Rx     1FFFFFF2  5  00 01 01 01 01 
  664       18119.4  Tx     1FFFFFF3  8  87 4F E9 03 87 8A 88 F6 
  665       18122.0  Rx     1FFFFFF2  2  00 01 
  666       18122.1  Tx     1FFFFFF3  8  95 E7 02 9E FE 08 E4 0A 
  667       18124.6  Rx     1FFFFFF2  2  00 01 
  668       18124.7  Tx     1FFFFFF3  8  E1 09 26 04 A6 01 20 0B 
  669       18127.2  Rx     1FFFFFF2  2  00 01 
  670       18127.3  Tx     1FFFFFF3  6  E6 0B 95 E1 02 20 
  671       18132.1  Rx     1FFFFFF2  3  00 00 01 
  672       18132.2  Tx     1FFFFFF3  8  53 31 23 28 80 26 02 4F 
  673       18134.7  Rx     1FFFFFF2  5  00 01 01 01 01 
  674       18134.8  Tx     1FFFFFF3  8  65 A6 02 A7 05 81 A7 F0 
  675       18137.4  Rx     1FFFFFF2  2  00 01 
  676       18137.4  Tx     1FFFFFF3  8  C6 01 0C 41 FF 0C C6 01 
  677       18140.0  Rx     1FFFFFF2  2  00 01 
  678       18140.1  Tx     1FFFFFF3  8  0C AE 11 42 89 8A 97 D6 
  679       18142.6  Rx     1FFFFFF2  2  00 01 
  680       18142.7  Tx     1FFFFFF3  6  24 4D 95 F7 45 37 
  681       18147.3  Rx     1FFFFFF2  3  00 00 01 
  682       18147.4  Tx     1FFFFFF3  8  53 31 23 28 A0 07 FF 9E 
  683       18157.8  Rx     1FFFFFF2  5  00 01 01 01 01 
  684       18157.9  Tx     1FFFFFF3  8  FF 04 5F 8C 9E FF 02 95 
  685       18160.5  Rx     1FFFFFF2  2  00 01 
  686       18160.6  Tx     1FFFFFF3  8  E6 05 A4 FE E7 05 A4 FD 
  687       18163.1  Rx     1FFFFFF2  2  00 01 
  688       18163.2  Tx     1FFFFFF3  8  E7 05 A6 08 E7 0E 6F 0F 
  689       18165.7  Rx     1FFFFFF2  2  00 01 
  690       18165.8  Tx     1FFFFFF3  6  A6 BB E7 06 F6 E3 
  691       18170.4  Rx     1FFFFFF2  3  00 00 01 
  692       18170.4  Tx     1FFFFFF3  8  53 31 23 28 C0 E7 07 C6 
  693       18173.1  Rx     1FFFFFF2  5  00 01 01 01 01 
  694       18173.2  Tx     1FFFFFF3  8  01 6B E7 08 A6 10 E7 09 
  695       18175.8  Rx     1FFFFFF2  2  00 01 
  696       18175.8  Tx     1FFFFFF3  8  6F 0A 6F 0B 6F 0C 6F 0D 
  697       18178.4  Rx     1FFFFFF2  2  00 01 
  698       18178.4  Tx     1FFFFFF3  8  AF 01 CD 3B BB A7 10 81 
  699       18181.0  Rx     1FFFFFF2  2  00 01 
  700       18181.2  Tx     1FFFFFF3  6  87 A7 F1 45 07 3F 
  701       18185.9  Rx     1FFFFFF2  3  00 00 01 
  702       18186.0  Tx     1FFFFFF3  8  53 31 23 28 E0 FE 9E FF 
  703       18188.7  Rx     1FFFFFF2  5  00 01 01 01 01 
  704       18188.8  Tx     1FFFFFF3  8  03 5F 8C 9E FF 01 95 E6 
  705       18191.3  Rx     1FFFFFF2  2  00 01 
  706       18191.4  Tx     1FFFFFF3  8  04 A4 FE E7 04 A4 FD E7 
  707       18194.1  Rx     1FFFFFF2  2  00 01 
  708       18194.2  Tx     1FFFFFF3  8  04 A6 08 E7 0D 6F 0E A6 
  709       18196.8  Rx     1FFFFFF2  2  00 01 
  710       18196.9  Tx     1FFFFFF3  6  C0 E7 05 E6 0F AF 
  711       18201.6  Rx     1FFFFFF2  3  00 00 01 
  712       18201.7  Tx     1FFFFFF3  8  53 31 23 29 00 AE 11 42 
  713       18204.4  Rx     1FFFFFF2  5  00 01 01 01 01 
  714       18204.5  Tx     1FFFFFF3  8  89 8A 97 D6 24 4D 9E E7 
  715       18207.0  Rx     1FFFFFF2  2  00 01 
  716       18207.1  Tx     1FFFFFF3  8  07 9E E6 10 9E E7 08 D6 
  717       18209.7  Rx     1FFFFFF2  2  00 01 
  718       18209.7  Tx     1FFFFFF3  8  24 44 9E E7 09 9F AB 41 
  719       18212.3  Rx     1FFFFFF2  2  00 01 
  720       18212.4  Tx     1FFFFFF3  6  87 8B 86 A9 24 58 
  721       18217.1  Rx     1FFFFFF2  3  00 00 01 
  722       18217.2  Tx     1FFFFFF3  8  53 31 23 29 20 87 8A 88 
  723       18219.8  Rx     1FFFFFF2  5  00 01 01 01 01 
  724       18219.8  Tx     1FFFFFF3  8  EE 02 9E EF 0A 95 6F 0A 
  725       18222.4  Rx     1FFFFFF2  2  00 01 
  726       18222.4  Tx     1FFFFFF3  8  6F 0B 6F 0C CD 3B BB A7 
  727       18225.0  Rx     1FFFFFF2  2  00 01 
  728       18225.1  Tx     1FFFFFF3  8  10 81 87 A7 FE AE 11 42 
  729       18227.6  Rx     1FFFFFF2  2  00 01 
  730       18227.6  Tx     1FFFFFF3  6  89 8A 97 D6 24 A4 
  731       18232.4  Rx     1FFFFFF2  3  00 00 01 
  732       18232.4  Tx     1FFFFFF3  8  53 31 23 29 40 4D 95 E7 
  733       18235.1  Rx     1FFFFFF2  5  00 01 01 01 01 
  734       18235.1  Tx     1FFFFFF3  8  01 4F 87 87 AF 01 89 8B 
  735       18237.7  Rx     1FFFFFF2  2  00 01 
  736       18237.8  Tx     1FFFFFF3  8  AE 01 8C CD 57 BB A7 04 
  737       18240.3  Rx     1FFFFFF2  2  00 01 
  738       18240.4  Tx     1FFFFFF3  8  95 E6 02 C7 01 0C 4F C7 
  739       18242.9  Rx     1FFFFFF2  2  00 01 
  740       18243.0  Tx     1FFFFFF3  6  01 6D 8C 5F 96 6D 
  741       18247.7  Rx     1FFFFFF2  3  00 00 01 
  742       18247.8  Tx     1FFFFFF3  8  53 31 23 29 60 01 6F C7 
  743       18250.4  Rx     1FFFFFF2  5  00 01 01 01 01 
  744       18250.4  Tx     1FFFFFF3  8  01 71 45 13 88 96 01 0D 
  745       18253.0  Rx     1FFFFFF2  2  00 01 
  746       18253.1  Tx     1FFFFFF3  8  C7 01 6E A6 50 C7 01 0F 
  747       18255.6  Rx     1FFFFFF2  2  00 01 
  748       18255.7  Tx     1FFFFFF3  8  4F C7 01 72 AE 08 8C CD 
  749       18258.2  Rx     1FFFFFF2  2  00 01 
  750       18258.3  Tx     1FFFFFF3  6  62 06 95 E6 02 A6 
  751       18263.1  Rx     1FFFFFF2  3  00 00 01 
  752       18263.2  Tx     1FFFFFF3  8  53 31 23 29 80 AE 11 42 
  753       18265.8  Rx     1FFFFFF2  5  00 01 01 01 01 
  754       18265.9  Tx     1FFFFFF3  8  89 8A 97 87 8B 86 9E E7 
  755       18268.4  Rx     1FFFFFF2  2  00 01 
  756       18268.5  Tx     1FFFFFF3  8  02 86 9E BE 24 43 89 8B 
  757       18271.1  Rx     1FFFFFF2  2  00 01 
  758       18271.1  Tx     1FFFFFF3  8  95 EE 02 89 8A 97 9E BE 
  759       18273.7  Rx     1FFFFFF2  2  00 01 
  760       18273.8  Tx     1FFFFFF3  6  24 41 89 8B 95 73 
  761       18278.6  Rx     1FFFFFF2  3  00 00 01 
  762       18278.7  Tx     1FFFFFF3  8  53 31 23 29 A0 EE 04 89 
  763       18281.3  Rx     1FFFFFF2  5  00 01 01 01 01 
  764       18281.4  Tx     1FFFFFF3  8  8A 97 9E BE 24 47 89 8B 
  765       18284.1  Rx     1FFFFFF2  2  00 01 
  766       18284.2  Tx     1FFFFFF3  8  95 EE 06 89 8A 97 9E BE 
  767       18286.8  Rx     1FFFFFF2  2  00 01 
  768       18286.9  Tx     1FFFFFF3  8  24 45 89 8B CD 27 E1 A7 
  769       18289.5  Rx     1FFFFFF2  2  00 01 
  770       18289.6  Tx     1FFFFFF3  6  08 A6 01 C7 01 9D 
  771       18294.3  Rx     1FFFFFF2  3  00 00 01 
  772       18294.4  Tx     1FFFFFF3  8  53 31 23 29 C0 6B C7 01 
  773       18297.1  Rx     1FFFFFF2  5  00 01 01 01 01 
  774       18297.1  Tx     1FFFFFF3  8  7C A6 05 C7 01 7D 5F 8C 
  775       18299.7  Rx     1FFFFFF2  2  00 01 
  776       18299.9  Tx     1FFFFFF3  8  96 01 7E CF 01 80 A6 01 
  777       18302.4  Rx     1FFFFFF2  2  00 01 
  778       18302.5  Tx     1FFFFFF3  8  C7 01 81 C7 01 6E AE 08 
  779       18305.2  Rx     1FFFFFF2  2  00 01 
  780       18305.3  Tx     1FFFFFF3  6  CD 62 06 95 E6 78 
  781       18310.1  Rx     1FFFFFF2  3  00 00 01 
  782       18310.2  Tx     1FFFFFF3  8  53 31 23 29 E0 02 C7 01 
  783       18312.8  Rx     1FFFFFF2  5  00 01 01 01 01 
  784       18312.9  Tx     1FFFFFF3  8  11 A6 01 C7 01 83 A7 03 
  785       18315.4  Rx     1FFFFFF2  2  00 01 
  786       18315.5  Tx     1FFFFFF3  8  81 A7 FA A6 FF 95 E7 05 
  787       18318.1  Rx     1FFFFFF2  2  00 01 
  788       18318.2  Tx     1FFFFFF3  8  45 01 33 89 8B 45 25 F1 
  789       18320.7  Rx     1FFFFFF2  2  00 01 
  790       18320.8  Tx     1FFFFFF3  6  89 8B AE 14 8C CA 
  791       18325.4  Rx     1FFFFFF2  3  00 00 01 
  792       18325.5  Tx     1FFFFFF3  8  53 31 23 2A 00 CD 35 7B 
  793       18328.1  Rx     1FFFFFF2  5  00 01 01 01 01 
  794       18328.2  Tx     1FFFFFF3  8  A7 04 AE 08 8C 4F CD 62 
  795       18330.7  Rx     1FFFFFF2  2  00 01 
  796       18330.8  Tx     1FFFFFF3  8  06 4F C7 01 6D 8C 5F 96 
  797       18333.4  Rx     1FFFFFF2  2  00 01 
  798       18333.5  Tx     1FFFFFF3  8  01 6F C7 01 71 45 13 88 
  799       18336.0  Rx     1FFFFFF2  2  00 01 
  800       18336.1  Tx     1FFFFFF3  6  96 01 0D C7 01 CA 
  801       18340.9  Rx     1FFFFFF2  3  00 00 01 
  802       18340.9  Tx     1FFFFFF3  8  53 31 23 2A 20 6E A6 50 
  803       18343.6  Rx     1FFFFFF2  5  00 01 01 01 01 
  804       18343.7  Tx     1FFFFFF3  8  C7 01 0F 4F C7 01 72 8C 
  805       18346.2  Rx     1FFFFFF2  2  00 01 
  806       18346.3  Tx     1FFFFFF3  8  5F 96 01 79 C7 01 7B C7 
  807       18348.9  Rx     1FFFFFF2  2  00 01 
  808       18348.9  Tx     1FFFFFF3  8  01 7C C7 01 7D 96 01 7E 
  809       18351.5  Rx     1FFFFFF2  2  00 01 
  810       18351.6  Tx     1FFFFFF3  6  C7 01 80 C7 01 E2 
  811       18356.4  Rx     1FFFFFF2  3  00 00 01 
  812       18356.4  Tx     1FFFFFF3  8  53 31 23 2A 40 81 C7 01 
  813       18359.1  Rx     1FFFFFF2  5  00 01 01 01 01 
  814       18359.2  Tx     1FFFFFF3  8  6C C7 01 82 A6 FF C7 01 
  815       18361.7  Rx     1FFFFFF2  2  00 01 
  816       18361.8  Tx     1FFFFFF3  8  10 CF 01 83 C7 01 11 96 
  817       18364.3  Rx     1FFFFFF2  2  00 01 
  818       18364.4  Tx     1FFFFFF3  8  01 84 95 6F 04 95 EE 04 
  819       18367.0  Rx     1FFFFFF2  2  00 01 
  820       18367.1  Tx     1FFFFFF3  6  58 8C 4F D7 01 15 
  821       18371.8  Rx     1FFFFFF2  3  00 00 01 
  822       18371.9  Tx     1FFFFFF3  8  53 31 23 2A 60 86 D7 01 
  823       18374.5  Rx     1FFFFFF2  5  00 01 01 01 01 
  824       18374.6  Tx     1FFFFFF3  8  87 9E 6C 05 9E EE 05 A3 
  825       18377.3  Rx     1FFFFFF2  2  00 01 
  826       18377.4  Tx     1FFFFFF3  8  10 25 EA 8B 87 95 AF 07 
  827       18379.9  Rx     1FFFFFF2  2  00 01 
  828       18380.0  Tx     1FFFFFF3  8  89 8B AE 01 8C CD 57 A2 
  829       18382.6  Rx     1FFFFFF2  2  00 01 
  830       18382.7  Tx     1FFFFFF3  6  A7 04 A6 FF C7 82 
  831       18387.4  Rx     1FFFFFF2  3  00 00 01 
  832       18387.5  Tx     1FFFFFF3  8  53 31 23 2A 80 01 0C 95 
  833       18390.3  Rx     1FFFFFF2  5  00 01 01 01 01 
  834       18390.3  Tx     1FFFFFF3  8  6F 04 E6 04 AE 11 42 87 
  835       18393.0  Rx     1FFFFFF2  2  00 01 
  836       18393.1  Tx     1FFFFFF3  8  89 95 E6 07 8A 88 D1 24 
  837       18395.7  Rx     1FFFFFF2  2  00 01 
  838       18395.7  Tx     1FFFFFF3  8  4D 26 08 95 E6 04 C7 01 
  839       18398.3  Rx     1FFFFFF2  2  00 01 
  840       18398.4  Tx     1FFFFFF3  6  0C 20 09 95 6C A1 
  841       18403.2  Rx     1FFFFFF2  3  00 00 01 
  842       18403.3  Tx     1FFFFFF3  8  53 31 23 2A A0 04 E6 04 
  843       18406.1  Rx     1FFFFFF2  5  00 01 01 01 01 
  844       18406.1  Tx     1FFFFFF3  8  A1 10 25 DE C6 01 0C 41 
  845       18408.7  Rx     1FFFFFF2  2  00 01 
  846       18408.8  Tx     1FFFFFF3  8  FF 5B A6 01 C7 01 6B C6 
  847       18411.3  Rx     1FFFFFF2  2  00 01 
  848       18411.4  Tx     1FFFFFF3  8  01 0C AE 11 42 9E E7 01 
  849       18413.9  Rx     1FFFFFF2  2  00 01 
  850       18414.0  Tx     1FFFFFF3  6  C6 01 0C 9E EF 6E 
  851       18418.7  Rx     1FFFFFF2  3  00 00 01 
  852       18418.8  Tx     1FFFFFF3  8  53 31 23 2A C0 02 AE 11 
  853       18421.4  Rx     1FFFFFF2  5  00 01 01 01 01 
  854       18421.5  Tx     1FFFFFF3  8  42 9E E7 03 9E E6 02 87 
  855       18424.1  Rx     1FFFFFF2  2  00 01 
  856       18424.2  Tx     1FFFFFF3  8  9E E6 04 9E EF 05 95 EE 
  857       18426.7  Rx     1FFFFFF2  2  00 01 
  858       18426.8  Tx     1FFFFFF3  8  01 8A 9E BE 24 43 89 8B 
  859       18429.4  Rx     1FFFFFF2  2  00 01 
  860       18429.4  Tx     1FFFFFF3  6  95 EE 03 89 95 B7 
  861       18440.5  Rx     1FFFFFF2  3  00 00 01 
  862       18440.6  Tx     1FFFFFF3  8  53 31 23 2A E0 EE 03 8A 
  863       18443.2  Rx     1FFFFFF2  5  00 01 01 01 01 
  864       18443.3  Tx     1FFFFFF3  8  9E BE 24 41 89 8B 95 EE 
  865       18445.9  Rx     1FFFFFF2  2  00 01 
  866       18445.9  Tx     1FFFFFF3  8  07 89 8A 97 9E BE 24 47 
  867       18448.5  Rx     1FFFFFF2  2  00 01 
  868       18448.6  Tx     1FFFFFF3  8  89 8B 95 EE 09 89 8A 97 
  869       18451.1  Rx     1FFFFFF2  2  00 01 
  870       18451.2  Tx     1FFFFFF3  6  9E BE 24 45 89 EF 
  871       18455.9  Rx     1FFFFFF2  3  00 00 01 
  872       18456.0  Tx     1FFFFFF3  8  53 31 23 2B 00 8B CD 27 
  873       18458.6  Rx     1FFFFFF2  5  00 01 01 01 01 
  874       18458.6  Tx     1FFFFFF3  8  E1 A7 08 20 07 4F C7 01 
  875       18461.2  Rx     1FFFFFF2  2  00 01 
  876       18461.3  Tx     1FFFFFF3  8  6B CD 28 0E A7 06 81 A7 
  877       18463.8  Rx     1FFFFFF2  2  00 01 
  878       18463.9  Tx     1FFFFFF3  8  EC A6 01 CD 59 2D 96 01 
  879       18466.5  Rx     1FFFFFF2  2  00 01 
  880       18466.6  Tx     1FFFFFF3  6  73 A6 02 CD 59 63 
  881       18471.5  Rx     1FFFFFF2  3  00 00 01 
  882       18471.5  Tx     1FFFFFF3  8  53 31 23 2B 20 2D 96 01 
  883       18474.3  Rx     1FFFFFF2  5  00 01 01 01 01 
  884       18474.4  Tx     1FFFFFF3  8  75 4F CD 59 2D 96 01 77 
  885       18477.0  Rx     1FFFFFF2  2  00 01 
  886       18477.1  Tx     1FFFFFF3  8  C6 01 6C 26 08 A6 01 C7 
  887       18479.7  Rx     1FFFFFF2  2  00 01 
  888       18479.7  Tx     1FFFFFF3  8  01 6C CD 28 89 32 01 84 
  889       18482.3  Rx     1FFFFFF2  2  00 01 
  890       18482.4  Tx     1FFFFFF3  6  65 75 30 24 03 06 
  891       18487.2  Rx     1FFFFFF2  3  00 00 01 
  892       18487.3  Tx     1FFFFFF3  8  53 31 23 2B 40 CC 2C 03 
  893       18490.0  Rx     1FFFFFF2  5  00 01 01 01 01 
  894       18490.1  Tx     1FFFFFF3  8  C6 01 7C 27 03 CC 2C 03 
  895       18492.7  Rx     1FFFFFF2  2  00 01 
  896       18492.8  Tx     1FFFFFF3  8  C6 01 7B 27 03 CC 2C 03 
  897       18495.4  Rx     1FFFFFF2  2  00 01 
  898       18495.6  Tx     1FFFFFF3  8  32 01 79 65 00 00 27 03 
  899       18498.2  Rx     1FFFFFF2  2  00 01 
  900       18498.3  Tx     1FFFFFF3  6  CC 2C 03 C6 01 AA 
  901       18503.1  Rx     1FFFFFF2  3  00 00 01 
  902       18503.2  Tx     1FFFFFF3  8  53 31 23 2B 60 6B 26 0B 
  903       18505.9  Rx     1FFFFFF2  5  00 01 01 01 01 
  904       18506.0  Tx     1FFFFFF3  8  32 01 77 65 27 10 23 03 
  905       18508.5  Rx     1FFFFFF2  2  00 01 
  906       18508.7  Tx     1FFFFFF3  8  CC 2C 03 C6 01 82 27 03 
  907       18511.2  Rx     1FFFFFF2  2  00 01 
  908       18511.4  Tx     1FFFFFF3  8  CC 2C 03 C6 01 83 27 03 
  909       18513.9  Rx     1FFFFFF2  2  00 01 
  910       18514.0  Tx     1FFFFFF3  6  CC 2C 03 C6 01 AA 
  911       18518.8  Rx     1FFFFFF2  3  00 00 01 
  912       18518.8  Tx     1FFFFFF3  8  53 31 23 2B 80 0C A1 10 
  913       18521.5  Rx     1FFFFFF2  5  00 01 01 01 01 
  914       18521.6  Tx     1FFFFFF3  8  25 04 A6 FF 20 0C C6 01 
  915       18524.2  Rx     1FFFFFF2  2  00 01 
  916       18524.3  Tx     1FFFFFF3  8  0C AE 11 42 89 8A 97 D6 
  917       18526.8  Rx     1FFFFFF2  2  00 01 
  918       18526.9  Tx     1FFFFFF3  8  24 4D 95 E7 01 AE 08 8C 
  919       18529.5  Rx     1FFFFFF2  2  00 01 
  920       18529.6  Tx     1FFFFFF3  6  4F CD 62 06 4F 23 
  921       18534.3  Rx     1FFFFFF2  3  00 00 01 
  922       18534.4  Tx     1FFFFFF3  8  53 31 23 2B A0 C7 01 6E 
  923       18537.1  Rx     1FFFFFF2  5  00 01 01 01 01 
  924       18537.2  Tx     1FFFFFF3  8  45 07 FD 9E FF 05 8C 5F 
  925       18539.8  Rx     1FFFFFF2  2  00 01 
  926       18540.1  Tx     1FFFFFF3  8  9E FF 03 95 E6 06 A4 FE 
  927       18542.5  Rx     1FFFFFF2  2  00 01 
  928       18542.7  Tx     1FFFFFF3  8  E7 06 A4 FD E7 06 A6 08 
  929       18545.2  Rx     1FFFFFF2  2  00 01 
  930       18545.3  Tx     1FFFFFF3  6  E7 0F 6F 10 A6 FE 
  931       18550.1  Rx     1FFFFFF2  3  00 00 01 
  932       18550.2  Tx     1FFFFFF3  8  53 31 23 2B C0 A0 E7 07 
  933       18552.9  Rx     1FFFFFF2  5  00 01 01 01 01 
  934       18553.0  Tx     1FFFFFF3  8  C6 01 85 E7 08 C6 01 84 
  935       18555.5  Rx     1FFFFFF2  2  00 01 
  936       18555.6  Tx     1FFFFFF3  8  E7 09 E6 01 E7 0A 6F 0B 
  937       18558.2  Rx     1FFFFFF2  2  00 01 
  938       18558.5  Tx     1FFFFFF3  8  6F 0C 6F 0D 6F 0E AF 02 
  939       18560.9  Rx     1FFFFFF2  2  00 01 
  940       18561.0  Tx     1FFFFFF3  6  CD 3B BB CD 27 BF 
  941       18565.8  Rx     1FFFFFF2  3  00 00 01 
  942       18565.8  Tx     1FFFFFF3  8  53 31 23 2B E0 39 45 07 
  943       18568.5  Rx     1FFFFFF2  5  00 01 01 01 01 
  944       18568.6  Tx     1FFFFFF3  8  FC 9E FF 05 5F 8C 9E FF 
  945       18571.2  Rx     1FFFFFF2  2  00 01 
  946       18571.3  Tx     1FFFFFF3  8  03 A6 A1 95 E7 07 E6 01 
  947       18573.9  Rx     1FFFFFF2  2  00 01 
  948       18574.0  Tx     1FFFFFF3  8  E7 08 6F 09 6F 0A AF 02 
  949       18576.5  Rx     1FFFFFF2  2  00 01 
  950       18576.7  Tx     1FFFFFF3  6  CD 3B BB 5F 8C 33 
  951       18581.3  Rx     1FFFFFF2  3  00 00 01 
  952       18581.4  Tx     1FFFFFF3  8  53 31 23 2C 00 96 01 84 
  953       18584.1  Rx     1FFFFFF2  5  00 01 01 01 01 
  954       18584.2  Tx     1FFFFFF3  8  C6 01 7B 27 7A A6 FF 95 
  955       18586.7  Rx     1FFFFFF2  2  00 01 
  956       18586.8  Tx     1FFFFFF3  8  E7 11 5F CF 01 7B 89 89 
  957       18589.4  Rx     1FFFFFF2  2  00 01 
  958       18589.5  Tx     1FFFFFF3  8  95 AF 13 89 8B AE 01 8C 
  959       18592.1  Rx     1FFFFFF2  2  00 01 
  960       18592.2  Tx     1FFFFFF3  6  CD 57 BB A7 04 94 
  961       18596.9  Rx     1FFFFFF2  3  00 00 01 
  962       18597.0  Tx     1FFFFFF3  8  53 31 23 2C 20 A6 FF C7 
  963       18599.7  Rx     1FFFFFF2  5  00 01 01 01 01 
  964       18599.7  Tx     1FFFFFF3  8  01 0C 4F C7 01 6D 8C 5F 
  965       18602.3  Rx     1FFFFFF2  2  00 01 
  966       18602.4  Tx     1FFFFFF3  8  96 01 6F C7 01 71 45 13 
  967       18605.0  Rx     1FFFFFF2  2  00 01 
  968       18605.1  Tx     1FFFFFF3  8  88 96 01 0D A6 50 C7 01 
  969       18607.7  Rx     1FFFFFF2  2  00 01 
  970       18607.8  Tx     1FFFFFF3  6  0F 4F C7 01 72 8F 
  971       18612.5  Rx     1FFFFFF2  3  00 00 01 
  972       18612.6  Tx     1FFFFFF3  8  53 31 23 2C 40 C7 01 82 
  973       18615.2  Rx     1FFFFFF2  5  00 01 01 01 01 
  974       18615.3  Tx     1FFFFFF3  8  4A C7 01 10 4F C7 01 83 
  975       18617.8  Rx     1FFFFFF2  2  00 01 
  976       18617.9  Tx     1FFFFFF3  8  95 7F FE 58 8C 4F D7 01 
  977       18620.5  Rx     1FFFFFF2  2  00 01 
  978       18620.6  Tx     1FFFFFF3  8  86 D7 01 87 95 7C F6 A1 
  979       18623.2  Rx     1FFFFFF2  2  00 01 
  980       18623.3  Tx     1FFFFFF3  6  10 25 EF 4F C7 86 
  981       18628.1  Rx     1FFFFFF2  3  00 00 01 
  982       18628.2  Tx     1FFFFFF3  8  53 31 23 2C 60 01 6B CD 
  983       18630.8  Rx     1FFFFFF2  5  00 01 01 01 01 
  984       18630.9  Tx     1FFFFFF3  8  28 0E A6 01 C7 01 7C AE 
  985       18633.5  Rx     1FFFFFF2  2  00 01 
  986       18633.6  Tx     1FFFFFF3  8  03 CF 01 7D 5F 8C 96 01 
  987       18636.2  Rx     1FFFFFF2  2  00 01 
  988       18636.2  Tx     1FFFFFF3  8  7E CF 01 80 C7 01 81 C7 
  989       18638.8  Rx     1FFFFFF2  2  00 01 
  990       18638.9  Tx     1FFFFFF3  6  01 6E AE 08 CD A6 
  991       18643.7  Rx     1FFFFFF2  3  00 00 01 
  992       18643.7  Tx     1FFFFFF3  8  53 31 23 2C 80 62 06 C6 
  993       18646.3  Rx     1FFFFFF2  5  00 01 01 01 01 
  994       18646.4  Tx     1FFFFFF3  8  01 82 27 16 C6 01 6B 26 
  995       18649.0  Rx     1FFFFFF2  2  00 01 
  996       18649.1  Tx     1FFFFFF3  8  11 C6 01 10 95 E7 12 5F 
  997       18651.6  Rx     1FFFFFF2  2  00 01 
  998       18651.7  Tx     1FFFFFF3  8  CF 01 82 A1 10 24 03 CD 
  999       18654.2  Rx     1FFFFFF2  2  00 01 
 1000       18654.3  Tx     1FFFFFF3  6  29 35 C6 01 83 76 
 1001       18659.1  Rx     1FFFFFF2  3  00 00 01 
 1002       18659.1  Tx     1FFFFFF3  8  53 31 23 2C A0 27 11 C6 
 1003       18661.8  Rx     1FFFFFF2  5  00 01 01 01 01 
 1004       18661.8  Tx     1FFFFFF3  8  01 11 95 E7 13 5F CF 01 
 1005       18664.4  Rx     1FFFFFF2  2  00 01 
 1006       18664.5  Tx     1FFFFFF3  8  83 A1 10 24 03 CD 28 DB 
 1007       18667.1  Rx     1FFFFFF2  2  00 01 
 1008       18667.2  Tx     1FFFFFF3  8  A7 14 81 89 8B A7 F1 5F 
 1009       18669.7  Rx     1FFFFFF2  2  00 01 
 1010       18669.8  Tx     1FFFFFF3  6  8C 96 01 84 C6 63 
 1011       18674.5  Rx     1FFFFFF2  3  00 00 01 
 1012       18674.6  Tx     1FFFFFF3  8  53 31 23 2C C0 01 6B 4A 
 1013       18677.3  Rx     1FFFFFF2  5  00 01 01 01 01 
 1014       18677.4  Tx     1FFFFFF3  8  27 03 CC 2E 7F C6 01 0C 
 1015       18680.0  Rx     1FFFFFF2  2  00 01 
 1016       18680.1  Tx     1FFFFFF3  8  A1 10 24 59 C6 01 0C AE 
 1017       18682.7  Rx     1FFFFFF2  2  00 01 
 1018       18682.8  Tx     1FFFFFF3  8  11 42 AB 41 87 9F A9 24 
 1019       18685.4  Rx     1FFFFFF2  2  00 01 
 1020       18685.4  Tx     1FFFFFF3  6  87 95 EE 01 8A 4E 
 1021       18690.3  Rx     1FFFFFF2  3  00 00 01 
 1022       18690.3  Tx     1FFFFFF3  8  53 31 23 2C E0 9E FF 05 
 1023       18693.0  Rx     1FFFFFF2  5  00 01 01 01 01 
 1024       18693.1  Tx     1FFFFFF3  8  8B 8C 5F 96 01 0D 8A 88 
 1025       18695.7  Rx     1FFFFFF2  2  00 01 
 1026       18695.8  Tx     1FFFFFF3  8  E6 0C A1 0D 26 7C 9E FE 
 1027       18698.4  Rx     1FFFFFF2  2  00 01 
 1028       18698.5  Tx     1FFFFFF3  8  10 9E EF 01 9E CE 02 65 
 1029       18701.1  Rx     1FFFFFF2  2  00 01 
 1030       18701.2  Tx     1FFFFFF3  6  06 22 26 2B 9E 9C 
 1031       18705.9  Rx     1FFFFFF2  3  00 00 01 
 1032       18706.0  Tx     1FFFFFF3  8  53 31 23 2D 00 FE 10 9E 
 1033       18708.6  Rx     1FFFFFF2  5  00 01 01 01 01 
 1034       18708.7  Tx     1FFFFFF3  8  AE 26 24 4F C7 01 0F CE 
 1035       18711.3  Rx     1FFFFFF2  2  00 01 
 1036       18711.3  Tx     1FFFFFF3  8  01 72 26 5C 9E FE 10 EE 
 1037       18713.9  Rx     1FFFFFF2  2  00 01 
 1038       18714.0  Tx     1FFFFFF3  8  0D A3 03 23 7E 9E EE 01 
 1039       18716.5  Rx     1FFFFFF2  2  00 01 
 1040       18716.6  Tx     1FFFFFF3  6  EE 08 51 60 04 FC 
 1041       18721.4  Rx     1FFFFFF2  3  00 00 01 
 1042       18721.4  Tx     1FFFFFF3  8  53 31 23 2D 20 A3 70 26 
 1043       18724.1  Rx     1FFFFFF2  5  00 01 01 01 01 
 1044       18724.2  Tx     1FFFFFF3  8  01 4C C7 01 6D 20 6C 9E 
 1045       18726.7  Rx     1FFFFFF2  2  00 01 
 1046       18726.8  Tx     1FFFFFF3  8  FE 10 9E CE 02 65 02 FB 
 1047       18729.4  Rx     1FFFFFF2  2  00 01 
 1048       18729.4  Tx     1FFFFFF3  8  26 7D 9E FE 10 9E AE 26 
 1049       18732.0  Rx     1FFFFFF2  2  00 01 
 1050       18732.1  Tx     1FFFFFF3  6  76 9E FE 10 E6 03 
 1051       18736.8  Rx     1FFFFFF2  3  00 00 01 
 1052       18736.9  Tx     1FFFFFF3  8  53 31 23 2D 40 0D A1 01 
 1053       18739.6  Rx     1FFFFFF2  5  00 01 01 01 01 
 1054       18739.6  Tx     1FFFFFF3  8  23 6D E6 06 95 E7 0C A1 
 1055       18742.1  Rx     1FFFFFF2  2  00 01 
 1056       18742.2  Tx     1FFFFFF3  8  40 26 0A 4F C7 01 72 4C 
 1057       18744.8  Rx     1FFFFFF2  2  00 01 
 1058       18744.8  Tx     1FFFFFF3  8  C7 01 6D 20 5A A1 20 26 
 1059       18747.4  Rx     1FFFFFF2  2  00 01 
 1060       18747.5  Tx     1FFFFFF3  6  05 CD 2F 2E 20 F1 
 1061       18752.2  Rx     1FFFFFF2  3  00 00 01 
 1062       18752.3  Tx     1FFFFFF3  8  53 31 23 2D 60 75 C6 01 
 1063       18754.8  Rx     1FFFFFF2  5  00 01 01 01 01 
 1064       18754.9  Tx     1FFFFFF3  8  0F A1 50 25 6E CD 2F 2E 
 1065       18757.5  Rx     1FFFFFF2  2  00 01 
 1066       18757.6  Tx     1FFFFFF3  8  20 69 9E FE 04 E6 0C A1 
 1067       18760.1  Rx     1FFFFFF2  2  00 01 
 1068       18760.2  Tx     1FFFFFF3  8  0E 26 3E CD 2F 22 26 5B 
 1069       18762.7  Rx     1FFFFFF2  2  00 01 
 1070       18762.8  Tx     1FFFFFF3  6  9E FE 10 E6 0D EA 
 1071       18767.5  Rx     1FFFFFF2  3  00 00 01 
 1072       18767.6  Tx     1FFFFFF3  8  53 31 23 2D 80 A1 02 23 
 1073       18770.2  Rx     1FFFFFF2  5  00 01 01 01 01 
 1074       18770.3  Tx     1FFFFFF3  8  6C E6 05 9E E7 0E EE 07 
 1075       18772.9  Rx     1FFFFFF2  2  00 01 
 1076       18773.0  Tx     1FFFFFF3  8  9E EF 0F A5 40 26 06 4F 
 1077       18775.5  Rx     1FFFFFF2  2  00 01 
 1078       18775.6  Tx     1FFFFFF3  8  C7 01 6D 20 58 A5 A0 27 
 1079       18778.2  Rx     1FFFFFF2  2  00 01 
 1080       18778.4  Tx     1FFFFFF3  6  11 A3 0F CD 35 B0 
 1081       18783.2  Rx     1FFFFFF2  3  00 00 01 
 1082       18783.2  Tx     1FFFFFF3  8  53 31 23 2D A0 39 4F CD 
 1083       18785.9  Rx     1FFFFFF2  5  00 01 01 01 01 
 1084       18785.9  Tx     1FFFFFF3  8  35 48 26 01 4C C7 01 6D 
 1085       18788.5  Rx     1FFFFFF2  2  00 01 
 1086       18788.6  Tx     1FFFFFF3  8  20 43 A6 01 C7 01 6D 20 
 1087       18791.2  Rx     1FFFFFF2  2  00 01 
 1088       18791.3  Tx     1FFFFFF3  8  3C A1 10 26 7E CD 2F 22 
 1089       18793.9  Rx     1FFFFFF2  2  00 01 
 1090       18794.0  Tx     1FFFFFF3  6  26 35 9E FE 04 8C 
 1091       18802.1  Rx     1FFFFFF2  3  00 00 01 
 1092       18802.2  Tx     1FFFFFF3  8  53 31 23 2D C0 E6 08 9E 
 1093       18804.8  Rx     1FFFFFF2  5  00 01 01 01 01 
 1094       18804.9  Tx     1FFFFFF3  8  FE 10 E1 0D 24 29 CD 2F 
 1095       18807.5  Rx     1FFFFFF2  2  00 01 
 1096       18807.6  Tx     1FFFFFF3  8  0F 95 E7 09 A1 01 26 05 
 1097       18810.3  Rx     1FFFFFF2  2  00 01 
 1098       18810.3  Tx     1FFFFFF3  8  CD 2F 3F 20 5C 95 6D 09 
 1099       18812.9  Rx     1FFFFFF2  2  00 01 
 1100       18813.0  Tx     1FFFFFF3  6  26 77 C6 01 6D 2A 
 1101       18817.8  Rx     1FFFFFF2  3  00 00 01 
 1102       18817.9  Tx     1FFFFFF3  8  53 31 23 2D E0 4B 72 CD 
 1103       18820.6  Rx     1FFFFFF2  5  00 01 01 01 01 
 1104       18820.7  Tx     1FFFFFF3  8  2F 38 26 6D 9E FE 04 9E 
 1105       18823.3  Rx     1FFFFFF2  2  00 01 
 1106       18823.4  Tx     1FFFFFF3  8  CE 0F 96 01 6F 20 75 9E 
 1107       18826.1  Rx     1FFFFFF2  2  00 01 
 1108       18826.2  Tx     1FFFFFF3  8  FE 10 9E CE 02 65 02 66 
 1109       18828.8  Rx     1FFFFFF2  2  00 01 
 1110       18828.9  Tx     1FFFFFF3  6  26 7F 9E FE 10 5D 
 1111       18833.7  Rx     1FFFFFF2  3  00 00 01 
 1112       18833.7  Tx     1FFFFFF3  8  53 31 23 2E 00 9E AE 26 
 1113       18836.3  Rx     1FFFFFF2  5  00 01 01 01 01 
 1114       18836.4  Tx     1FFFFFF3  8  78 9E FE 10 6D 0D 27 71 
 1115       18838.9  Rx     1FFFFFF2  2  00 01 
 1116       18839.0  Tx     1FFFFFF3  8  E6 05 A5 02 26 02 4F 65 
 1117       18841.5  Rx     1FFFFFF2  2  00 01 
 1118       18841.6  Tx     1FFFFFF3  8  A6 01 95 E7 06 C6 01 71 
 1119       18844.1  Rx     1FFFFFF2  2  00 01 
 1120       18844.2  Tx     1FFFFFF3  6  4B 11 6D 06 26 42 
 1121       18849.0  Rx     1FFFFFF2  3  00 00 01 
 1122       18849.1  Tx     1FFFFFF3  8  53 31 23 2E 20 0D CD 2F 
 1123       18851.7  Rx     1FFFFFF2  5  00 01 01 01 01 
 1124       18851.8  Tx     1FFFFFF3  8  38 27 08 5F 8C 96 01 6F 
 1125       18854.4  Rx     1FFFFFF2  2  00 01 
 1126       18854.4  Tx     1FFFFFF3  8  CF 01 6D 95 E6 06 C7 01 
 1127       18857.0  Rx     1FFFFFF2  2  00 01 
 1128       18857.1  Tx     1FFFFFF3  8  71 20 46 CD 2F 22 26 41 
 1129       18859.6  Rx     1FFFFFF2  2  00 01 
 1130       18859.7  Tx     1FFFFFF3  6  9E FE 04 E6 08 BD 
 1131       18864.4  Rx     1FFFFFF2  3  00 00 01 
 1132       18864.5  Tx     1FFFFFF3  8  53 31 23 2E 40 9E FE 10 
 1133       18867.1  Rx     1FFFFFF2  5  00 01 01 01 01 
 1134       18867.2  Tx     1FFFFFF3  8  E1 0D 24 35 CD 2F 0F 95 
 1135       18869.8  Rx     1FFFFFF2  2  00 01 
 1136       18869.8  Tx     1FFFFFF3  8  E7 0A A1 01 26 05 CD 2F 
 1137       18872.4  Rx     1FFFFFF2  2  00 01 
 1138       18872.5  Tx     1FFFFFF3  8  3F 20 26 95 6D 0A 26 21 
 1139       18875.1  Rx     1FFFFFF2  2  00 01 
 1140       18875.1  Tx     1FFFFFF3  6  9E FE 04 9E CE 3D 
 1141       18879.9  Rx     1FFFFFF2  3  00 00 01 
 1142       18879.9  Tx     1FFFFFF3  8  53 31 23 2E 60 0F 26 06 
 1143       18882.5  Rx     1FFFFFF2  5  00 01 01 01 01 
 1144       18882.6  Tx     1FFFFFF3  8  4F C7 01 6D 20 13 C6 01 
 1145       18885.1  Rx     1FFFFFF2  2  00 01 
 1146       18885.2  Tx     1FFFFFF3  8  6D 4B 0E 9E FF 02 CD 2F 
 1147       18887.7  Rx     1FFFFFF2  2  00 01 
 1148       18887.8  Tx     1FFFFFF3  8  38 26 06 9E FE 02 96 01 
 1149       18890.4  Rx     1FFFFFF2  2  00 01 
 1150       18890.4  Tx     1FFFFFF3  6  6F CC 2F 0C 95 90 
 1151       18895.2  Rx     1FFFFFF2  3  00 00 01 
 1152       18895.3  Tx     1FFFFFF3  8  53 31 23 2E 80 6F 05 EE 
 1153       18897.9  Rx     1FFFFFF2  5  00 01 01 01 01 
 1154       18898.0  Tx     1FFFFFF3  8  05 A6 11 42 AB 41 87 9F 
 1155       18900.5  Rx     1FFFFFF2  2  00 01 
 1156       18900.6  Tx     1FFFFFF3  8  A9 24 87 95 EE 01 8A 9E 
 1157       18903.2  Rx     1FFFFFF2  2  00 01 
 1158       18903.3  Tx     1FFFFFF3  8  FF 09 9E FE 11 89 8B 87 
 1159       18905.8  Rx     1FFFFFF2  2  00 01 
 1160       18905.9  Tx     1FFFFFF3  6  95 EE 03 8A CD 8F 
 1161       18910.6  Rx     1FFFFFF2  3  00 00 01 
 1162       18910.7  Tx     1FFFFFF3  8  53 31 23 2E A0 34 70 8A 
 1163       18913.3  Rx     1FFFFFF2  5  00 01 01 01 01 
 1164       18913.4  Tx     1FFFFFF3  8  26 5B 9E FE 08 E6 08 9E 
 1165       18915.9  Rx     1FFFFFF2  2  00 01 
 1166       18915.9  Tx     1FFFFFF3  8  FE 10 E1 0D 24 4F 95 E6 
 1167       18918.5  Rx     1FFFFFF2  2  00 01 
 1168       18918.6  Tx     1FFFFFF3  8  05 48 8C 97 9E BE 01 86 
 1169       18921.1  Rx     1FFFFFF2  2  00 01 
 1170       18921.3  Tx     1FFFFFF3  6  65 00 00 CD 35 8B 
 1171       18925.8  Rx     1FFFFFF2  3  00 00 01 
 1172       18925.9  Tx     1FFFFFF3  8  53 31 23 2E C0 39 4F CD 
 1173       18928.5  Rx     1FFFFFF2  5  00 01 01 01 01 
 1174       18928.6  Tx     1FFFFFF3  8  35 48 27 01 4C 9E FE 08 
 1175       18931.2  Rx     1FFFFFF2  2  00 01 
 1176       18931.3  Tx     1FFFFFF3  8  89 8B 9E FE 12 AF 05 CD 
 1177       18933.9  Rx     1FFFFFF2  2  00 01 
 1178       18934.0  Tx     1FFFFFF3  8  28 3A A7 02 95 E7 0B 4B 
 1179       18936.6  Rx     1FFFFFF2  2  00 01 
 1180       18936.7  Tx     1FFFFFF3  6  15 EE 05 58 9F E5 
 1181       18941.5  Rx     1FFFFFF2  3  00 00 01 
 1182       18941.6  Tx     1FFFFFF3  8  53 31 23 2E E0 8C 9E BE 
 1183       18944.3  Rx     1FFFFFF2  5  00 01 01 01 01 
 1184       18944.4  Tx     1FFFFFF3  8  01 86 26 19 97 8C 4F D7 
 1185       18946.9  Rx     1FFFFFF2  2  00 01 
 1186       18947.1  Tx     1FFFFFF3  8  01 86 A6 01 20 0C 6D 0B 
 1187       18949.6  Rx     1FFFFFF2  2  00 01 
 1188       18949.8  Tx     1FFFFFF3  8  26 0B EE 05 58 8C 4F D7 
 1189       18952.3  Rx     1FFFFFF2  2  00 01 
 1190       18952.4  Tx     1FFFFFF3  6  01 86 D7 01 87 F1 
 1191       18957.2  Rx     1FFFFFF2  3  00 00 01 
 1192       18957.3  Tx     1FFFFFF3  8  53 31 23 2F 00 95 6C 05 
 1193       18960.0  Rx     1FFFFFF2  5  00 01 01 01 01 
 1194       18960.0  Tx     1FFFFFF3  8  E6 05 A1 10 24 03 CC 2E 
 1195       18962.6  Rx     1FFFFFF2  2  00 01 
 1196       18962.7  Tx     1FFFFFF3  8  82 A7 11 81 9E E6 07 87 
 1197       18965.3  Rx     1FFFFFF2  2  00 01 
 1198       18965.5  Tx     1FFFFFF3  8  9E E6 07 87 AF 05 C6 01 
 1199       18968.1  Rx     1FFFFFF2  2  00 01 
 1200       18968.2  Tx     1FFFFFF3  6  6D CD 28 3A A7 4D 
 1201       18972.9  Rx     1FFFFFF2  3  00 00 01 
 1202       18973.0  Tx     1FFFFFF3  8  53 31 23 2F 20 02 81 9E 
 1203       18975.7  Rx     1FFFFFF2  5  00 01 01 01 01 
 1204       18975.8  Tx     1FFFFFF3  8  FE 12 89 8B 9E FE 08 CD 
 1205       18978.5  Rx     1FFFFFF2  2  00 01 
 1206       18978.6  Tx     1FFFFFF3  8  34 70 81 A6 01 C7 01 72 
 1207       18981.3  Rx     1FFFFFF2  2  00 01 
 1208       18981.4  Tx     1FFFFFF3  8  4F C7 01 6D 81 32 01 6F 
 1209       18984.2  Rx     1FFFFFF2  2  00 01 
 1210       18984.3  Tx     1FFFFFF3  6  65 00 00 81 C7 7D 
 1211       18989.2  Rx     1FFFFFF2  3  00 00 01 
 1212       18989.3  Tx     1FFFFFF3  8  53 31 23 2F 40 01 6D 5F 
 1213       18992.0  Rx     1FFFFFF2  5  00 01 01 01 01 
 1214       18992.1  Tx     1FFFFFF3  8  8C 96 01 6F 81 A7 FD C6 
 1215       18994.7  Rx     1FFFFFF2  2  00 01 
 1216       18994.8  Tx     1FFFFFF3  8  01 7C 27 48 32 01 7E AF 
 1217       18997.3  Rx     1FFFFFF2  2  00 01 
 1218       18997.4  Tx     1FFFFFF3  8  01 96 01 7E C6 01 81 4B 
 1219       19000.0  Rx     1FFFFFF2  2  00 01 
 1220       19000.2  Tx     1FFFFFF3  6  13 32 01 7E 65 05 
 1221       19005.0  Rx     1FFFFFF2  3  00 00 01 
 1222       19005.0  Tx     1FFFFFF3  8  53 31 23 2F 60 01 2C 25 
 1223       19007.7  Rx     1FFFFFF2  5  00 01 01 01 01 
 1224       19007.8  Tx     1FFFFFF3  8  28 5F 8C 96 01 7E CF 01 
 1225       19010.3  Rx     1FFFFFF2  2  00 01 
 1226       19010.4  Tx     1FFFFFF3  8  81 CC 30 B3 32 01 7E 65 
 1227       19013.0  Rx     1FFFFFF2  2  00 01 
 1228       19013.1  Tx     1FFFFFF3  8  01 2C 25 15 5F 8C 96 01 
 1229       19015.6  Rx     1FFFFFF2  2  00 01 
 1230       19015.7  Tx     1FFFFFF3  6  7E 45 01 80 7C 14 
 1231       19020.4  Rx     1FFFFFF2  3  00 00 01 
 1232       19020.5  Tx     1FFFFFF3  8  53 31 23 2F 80 C6 01 7D 
 1233       19023.1  Rx     1FFFFFF2  5  00 01 01 01 01 
 1234       19023.2  Tx     1FFFFFF3  8  C1 01 80 22 07 4F C7 01 
 1235       19025.7  Rx     1FFFFFF2  2  00 01 
 1236       19025.8  Tx     1FFFFFF3  8  7C CC 30 B1 A6 01 C7 01 
 1237       19028.3  Rx     1FFFFFF2  2  00 01 
 1238       19028.4  Tx     1FFFFFF3  8  81 CC 30 CB 32 01 84 65 
 1239       19031.0  Rx     1FFFFFF2  2  00 01 
 1240       19031.1  Tx     1FFFFFF3  6  75 30 24 05 AF EE 
 1241       19035.8  Rx     1FFFFFF2  3  00 00 01 
 1242       19035.9  Tx     1FFFFFF3  8  53 31 23 2F A0 01 96 01 
 1243       19038.5  Rx     1FFFFFF2  5  00 01 01 01 01 
 1244       19038.6  Tx     1FFFFFF3  8  84 32 01 75 65 27 10 23 
 1245       19041.2  Rx     1FFFFFF2  2  00 01 
 1246       19041.2  Tx     1FFFFFF3  8  29 32 01 77 65 27 10 23 
 1247       19043.8  Rx     1FFFFFF2  2  00 01 
 1248       19043.8  Tx     1FFFFFF3  8  21 32 01 79 65 27 10 24 
 1249       19046.4  Rx     1FFFFFF2  2  00 01 
 1250       19046.5  Tx     1FFFFFF3  6  05 AF 01 96 01 1F 
 1251       19051.2  Rx     1FFFFFF2  3  00 00 01 
 1252       19051.3  Tx     1FFFFFF3  8  53 31 23 2F C0 79 32 01 
 1253       19053.9  Rx     1FFFFFF2  5  00 01 01 01 01 
 1254       19053.9  Tx     1FFFFFF3  8  79 65 27 10 25 11 C6 01 
 1255       19056.5  Rx     1FFFFFF2  2  00 01 
 1256       19056.6  Tx     1FFFFFF3  8  7B 26 0C A6 01 C7 01 7B 
 1257       19059.1  Rx     1FFFFFF2  2  00 01 
 1258       19059.2  Tx     1FFFFFF3  8  20 05 5F 8C 96 01 79 C6 
 1259       19061.7  Rx     1FFFFFF2  2  00 01 
 1260       19061.8  Tx     1FFFFFF3  6  01 6B 4B 69 32 60 
 1261       19066.5  Rx     1FFFFFF2  3  00 00 01 
 1262       19066.6  Tx     1FFFFFF3  8  53 31 23 2F E0 01 0D 65 
 1263       19069.2  Rx     1FFFFFF2  5  00 01 01 01 01 
 1264       19069.3  Tx     1FFFFFF3  8  13 88 24 05 AF 01 96 01 
 1265       19071.9  Rx     1FFFFFF2  2  00 01 
 1266       19072.0  Tx     1FFFFFF3  8  0D C6 01 0F A1 50 24 04 
 1267       19074.5  Rx     1FFFFFF2  2  00 01 
 1268       19074.6  Tx     1FFFFFF3  8  45 01 0F 7C 32 01 6F 27 
 1269       19077.2  Rx     1FFFFFF2  2  00 01 
 1270       19077.3  Tx     1FFFFFF3  6  0E AF FF 96 01 66 
 1271       19082.1  Rx     1FFFFFF2  3  00 00 01 
 1272       19082.2  Tx     1FFFFFF3  8  53 31 23 30 00 6F 32 01 
 1273       19084.8  Rx     1FFFFFF2  5  00 01 01 01 01 
 1274       19084.9  Tx     1FFFFFF3  8  6F 26 04 4F C7 01 6D 32 
 1275       19087.5  Rx     1FFFFFF2  2  00 01 
 1276       19087.6  Tx     1FFFFFF3  8  01 73 65 27 10 23 11 4F 
 1277       19090.3  Rx     1FFFFFF2  2  00 01 
 1278       19090.4  Tx     1FFFFFF3  8  C7 01 6D 8C 5F 96 01 6F 
 1279       19092.9  Rx     1FFFFFF2  2  00 01 
 1280       19093.0  Tx     1FFFFFF3  6  C7 01 71 C7 01 01 
 1281       19097.8  Rx     1FFFFFF2  3  00 00 01 
 1282       19097.9  Tx     1FFFFFF3  8  53 31 23 30 20 72 20 08 
 1283       19100.6  Rx     1FFFFFF2  5  00 01 01 01 01 
 1284       19100.7  Tx     1FFFFFF3  8  32 01 0D 65 13 88 25 05 
 1285       19103.3  Rx     1FFFFFF2  2  00 01 
 1286       19103.4  Tx     1FFFFFF3  8  95 6F 02 20 06 C6 01 6D 
 1287       19106.0  Rx     1FFFFFF2  2  00 01 
 1288       19106.1  Tx     1FFFFFF3  8  95 E7 02 C6 01 6E E1 02 
 1289       19108.7  Rx     1FFFFFF2  2  00 01 
 1290       19108.8  Tx     1FFFFFF3  6  27 74 E6 02 CD 42 
 1291       19118.0  Rx     1FFFFFF2  3  00 00 01 
 1292       19118.1  Tx     1FFFFFF3  8  53 31 23 30 40 30 DF C6 
 1293       19120.8  Rx     1FFFFFF2  5  00 01 01 01 01 
 1294       19120.9  Tx     1FFFFFF3  8  01 6E CC 30 CF C6 01 82 
 1295       19123.5  Rx     1FFFFFF2  2  00 01 
 1296       19123.6  Tx     1FFFFFF3  8  26 57 95 6F 01 EE 01 58 
 1297       19126.1  Rx     1FFFFFF2  2  00 01 
 1298       19126.2  Tx     1FFFFFF3  8  8C 9E EF 01 9E BE 01 86 
 1299       19128.8  Rx     1FFFFFF2  2  00 01 
 1300       19128.8  Tx     1FFFFFF3  6  27 3E 8C 9E EE D1 
 1301       19133.6  Rx     1FFFFFF2  3  00 00 01 
 1302       19133.7  Tx     1FFFFFF3  8  53 31 23 30 60 01 9E BE 
 1303       19136.3  Rx     1FFFFFF2  5  00 01 01 01 01 
 1304       19136.4  Tx     1FFFFFF3  8  01 86 65 17 70 24 31 8C 
 1305       19139.0  Rx     1FFFFFF2  2  00 01 
 1306       19139.1  Tx     1FFFFFF3  8  9E EE 01 9E BE 01 86 AF 
 1307       19141.6  Rx     1FFFFFF2  2  00 01 
 1308       19141.7  Tx     1FFFFFF3  8  01 8B 8C 89 9E EE 03 9E 
 1309       19144.2  Rx     1FFFFFF2  2  00 01 
 1310       19144.3  Tx     1FFFFFF3  6  E6 02 D7 01 86 68 
 1311       19149.0  Rx     1FFFFFF2  3  00 00 01 
 1312       19149.1  Tx     1FFFFFF3  8  53 31 23 30 80 86 D7 01 
 1313       19151.7  Rx     1FFFFFF2  5  00 01 01 01 01 
 1314       19151.8  Tx     1FFFFFF3  8  87 9E BE 01 86 65 17 70 
 1315       19154.4  Rx     1FFFFFF2  2  00 01 
 1316       19154.5  Tx     1FFFFFF3  8  86 25 0D 95 E6 01 C7 01 
 1317       19157.1  Rx     1FFFFFF2  2  00 01 
 1318       19157.3  Tx     1FFFFFF3  8  10 A6 01 C7 01 82 20 09 
 1319       19159.8  Rx     1FFFFFF2  2  00 01 
 1320       19159.9  Tx     1FFFFFF3  6  95 6C 01 E6 01 69 
 1321       19164.7  Rx     1FFFFFF2  3  00 00 01 
 1322       19164.8  Tx     1FFFFFF3  8  53 31 23 30 A0 A1 10 25 
 1323       19167.5  Rx     1FFFFFF2  5  00 01 01 01 01 
 1324       19167.5  Tx     1FFFFFF3  8  AC 32 01 73 65 27 10 23 
 1325       19170.1  Rx     1FFFFFF2  2  00 01 
 1326       19170.2  Tx     1FFFFFF3  8  09 C6 01 6E 26 25 20 29 
 1327       19172.7  Rx     1FFFFFF2  2  00 01 
 1328       19172.8  Tx     1FFFFFF3  8  20 21 32 01 77 65 27 10 
 1329       19175.3  Rx     1FFFFFF2  2  00 01 
 1330       19175.4  Tx     1FFFFFF3  6  23 14 32 01 75 ED 
 1331       19180.1  Rx     1FFFFFF2  3  00 00 01 
 1332       19180.2  Tx     1FFFFFF3  8  53 31 23 30 C0 65 27 10 
 1333       19182.8  Rx     1FFFFFF2  5  00 01 01 01 01 
 1334       19182.8  Tx     1FFFFFF3  8  22 0C C6 01 6E 41 01 11 
 1335       19185.5  Rx     1FFFFFF2  2  00 01 
 1336       19185.5  Tx     1FFFFFF3  8  A6 01 AD 10 20 08 C6 01 
 1337       19188.2  Rx     1FFFFFF2  2  00 01 
 1338       19188.3  Tx     1FFFFFF3  8  6E 27 06 4F AD 06 CD 62 
 1339       19190.8  Rx     1FFFFFF2  2  00 01 
 1340       19190.9  Tx     1FFFFFF3  6  06 A7 03 81 C7 83 
 1341       19195.8  Rx     1FFFFFF2  3  00 00 01 
 1342       19195.9  Tx     1FFFFFF3  8  53 31 23 30 E0 01 6E AE 
 1343       19198.5  Rx     1FFFFFF2  5  00 01 01 01 01 
 1344       19198.5  Tx     1FFFFFF3  8  08 8C 81 81 E6 03 87 E6 
 1345       19201.1  Rx     1FFFFFF2  2  00 01 
 1346       19201.2  Tx     1FFFFFF3  8  02 87 9E AE 89 8B 9E FE 
 1347       19203.7  Rx     1FFFFFF2  2  00 01 
 1348       19203.8  Tx     1FFFFFF3  8  07 E6 03 9E E7 11 E6 02 
 1349       19206.5  Rx     1FFFFFF2  2  00 01 
 1350       19206.5  Tx     1FFFFFF3  6  9E E7 10 9E AE EF 
 1351       19211.3  Rx     1FFFFFF2  3  00 00 01 
 1352       19211.3  Tx     1FFFFFF3  8  53 31 23 31 00 9E FF 0E 
 1353       19214.0  Rx     1FFFFFF2  5  00 01 01 01 01 
 1354       19214.1  Tx     1FFFFFF3  8  9E FE 05 FC A7 FE 87 89 
 1355       19216.7  Rx     1FFFFFF2  2  00 01 
 1356       19216.7  Tx     1FFFFFF3  8  8B 9E E6 07 87 9E E6 07 
 1357       19219.2  Rx     1FFFFFF2  2  00 01 
 1358       19219.3  Tx     1FFFFFF3  8  87 9E E6 0A 9E E7 06 9E 
 1359       19221.9  Rx     1FFFFFF2  2  00 01 
 1360       19222.0  Tx     1FFFFFF3  6  E6 0B 9E E7 07 CB 
 1361       19226.7  Rx     1FFFFFF2  3  00 00 01 
 1362       19226.7  Tx     1FFFFFF3  8  53 31 23 31 20 E6 03 9E 
 1363       19229.3  Rx     1FFFFFF2  5  00 01 01 01 01 
 1364       19229.4  Tx     1FFFFFF3  8  E7 0B E6 02 9E E7 0A 9E 
 1365       19232.0  Rx     1FFFFFF2  2  00 01 
 1366       19232.1  Tx     1FFFFFF3  8  AE 9E FF 08 81 87 89 8B 
 1367       19234.6  Rx     1FFFFFF2  2  00 01 
 1368       19234.7  Tx     1FFFFFF3  8  89 8B 9E FE 06 89 8B 9E 
 1369       19237.2  Rx     1FFFFFF2  2  00 01 
 1370       19237.3  Tx     1FFFFFF3  6  FE 0A 9E FF 08 79 
 1371       19242.0  Rx     1FFFFFF2  3  00 00 01 
 1372       19242.1  Tx     1FFFFFF3  8  53 31 23 31 40 9E FE 0C 
 1373       19244.7  Rx     1FFFFFF2  5  00 01 01 01 01 
 1374       19244.8  Tx     1FFFFFF3  8  CC 30 E7 A7 FE 87 89 8B 
 1375       19247.3  Rx     1FFFFFF2  2  00 01 
 1376       19247.4  Tx     1FFFFFF3  8  89 8B 9E FE 08 89 8B 9E 
 1377       19250.0  Rx     1FFFFFF2  2  00 01 
 1378       19250.1  Tx     1FFFFFF3  8  FE 0C AF 04 9E FF 08 AF 
 1379       19252.6  Rx     1FFFFFF2  2  00 01 
 1380       19252.7  Tx     1FFFFFF3  6  FC CC 30 E7 A7 9F 
 1381       19257.3  Rx     1FFFFFF2  3  00 00 01 
 1382       19257.4  Tx     1FFFFFF3  8  53 31 23 31 60 FE 87 89 
 1383       19260.0  Rx     1FFFFFF2  5  00 01 01 01 01 
 1384       19260.1  Tx     1FFFFFF3  8  8B 9E FE 08 89 8B AF 04 
 1385       19262.6  Rx     1FFFFFF2  2  00 01 
 1386       19262.7  Tx     1FFFFFF3  8  9E FF 06 9E FE 08 89 8B 
 1387       19265.3  Rx     1FFFFFF2  2  00 01 
 1388       19265.3  Tx     1FFFFFF3  8  9E FE 05 CC 30 E7 95 E6 
 1389       19267.9  Rx     1FFFFFF2  2  00 01 
 1390       19267.9  Tx     1FFFFFF3  6  12 EB 05 E7 12 F2 
 1391       19272.6  Rx     1FFFFFF2  3  00 00 01 
 1392       19272.7  Tx     1FFFFFF3  8  53 31 23 31 80 E6 11 E9 
 1393       19275.4  Rx     1FFFFFF2  5  00 01 01 01 01 
 1394       19275.5  Tx     1FFFFFF3  8  04 E7 11 E6 10 E9 03 E7 
 1395       19278.0  Rx     1FFFFFF2  2  00 01 
 1396       19278.1  Tx     1FFFFFF3  8  10 E6 0F E9 02 E7 0F A7 
 1397       19280.7  Rx     1FFFFFF2  2  00 01 
 1398       19280.8  Tx     1FFFFFF3  8  0A 8A 88 86 81 95 E6 09 
 1399       19283.4  Rx     1FFFFFF2  2  00 01 
 1400       19283.5  Tx     1FFFFFF3  6  EB 05 E7 09 E6 8C 
 1401       19288.3  Rx     1FFFFFF2  3  00 00 01 
 1402       19288.4  Tx     1FFFFFF3  8  53 31 23 31 A0 08 E9 04 
 1403       19291.2  Rx     1FFFFFF2  5  00 01 01 01 01 
 1404       19291.3  Tx     1FFFFFF3  8  E7 08 E6 07 E9 03 E7 07 
 1405       19293.9  Rx     1FFFFFF2  2  00 01 
 1406       19294.0  Tx     1FFFFFF3  8  E6 06 E9 02 E7 06 8A 88 
 1407       19296.6  Rx     1FFFFFF2  2  00 01 
 1408       19296.6  Tx     1FFFFFF3  8  A7 04 FC 95 E6 05 E9 03 
 1409       19299.3  Rx     1FFFFFF2  2  00 01 
 1410       19299.4  Tx     1FFFFFF3  6  E7 05 E6 04 E9 B8 
 1411       19304.2  Rx     1FFFFFF2  3  00 00 01 
 1412       19304.3  Tx     1FFFFFF3  8  53 31 23 31 C0 02 E7 04 
 1413       19306.9  Rx     1FFFFFF2  5  00 01 01 01 01 
 1414       19307.0  Tx     1FFFFFF3  8  8A 88 A7 02 FC 95 E6 12 
 1415       19309.6  Rx     1FFFFFF2  2  00 01 
 1416       19309.7  Tx     1FFFFFF3  8  E0 05 E7 12 E6 11 E2 04 
 1417       19312.3  Rx     1FFFFFF2  2  00 01 
 1418       19312.4  Tx     1FFFFFF3  8  E7 11 E6 10 E2 03 E7 10 
 1419       19315.1  Rx     1FFFFFF2  2  00 01 
 1420       19315.2  Tx     1FFFFFF3  6  E6 0F E2 02 E7 75 
 1421       19319.9  Rx     1FFFFFF2  3  00 00 01 
 1422       19320.0  Tx     1FFFFFF3  8  53 31 23 31 E0 0F A7 0A 
 1423       19322.7  Rx     1FFFFFF2  5  00 01 01 01 01 
 1424       19322.7  Tx     1FFFFFF3  8  8A 88 86 81 95 E6 12 E4 
 1425       19325.3  Rx     1FFFFFF2  2  00 01 
 1426       19325.4  Tx     1FFFFFF3  8  05 E7 12 E6 11 E4 04 E7 
 1427       19327.9  Rx     1FFFFFF2  2  00 01 
 1428       19328.0  Tx     1FFFFFF3  8  11 E6 10 E4 03 E7 10 E6 
 1429       19330.5  Rx     1FFFFFF2  2  00 01 
 1430       19330.6  Tx     1FFFFFF3  6  0F E4 02 E7 0F 07 
 1431       19335.3  Rx     1FFFFFF2  3  00 00 01 
 1432       19335.4  Tx     1FFFFFF3  8  53 31 23 32 00 A7 0A 8A 
 1433       19338.1  Rx     1FFFFFF2  5  00 01 01 01 01 
 1434       19338.1  Tx     1FFFFFF3  8  88 86 81 95 E6 12 EA 05 
 1435       19340.7  Rx     1FFFFFF2  2  00 01 
 1436       19340.8  Tx     1FFFFFF3  8  E7 12 E6 11 EA 04 E7 11 
 1437       19343.3  Rx     1FFFFFF2  2  00 01 
 1438       19343.4  Tx     1FFFFFF3  8  E6 10 EA 03 E7 10 E6 0F 
 1439       19345.9  Rx     1FFFFFF2  2  00 01 
 1440       19346.0  Tx     1FFFFFF3  6  EA 02 E7 0F A7 36 
 1441       19350.7  Rx     1FFFFFF2  3  00 00 01 
 1442       19350.7  Tx     1FFFFFF3  8  53 31 23 32 20 0A 8A 88 
 1443       19353.3  Rx     1FFFFFF2  5  00 01 01 01 01 
 1444       19353.4  Tx     1FFFFFF3  8  86 81 95 E6 12 E8 05 E7 
 1445       19355.9  Rx     1FFFFFF2  2  00 01 
 1446       19356.0  Tx     1FFFFFF3  8  12 E6 11 E8 04 E7 11 E6 
 1447       19358.5  Rx     1FFFFFF2  2  00 01 
 1448       19358.6  Tx     1FFFFFF3  8  10 E8 03 E7 10 E6 0F E8 
 1449       19367.8  Rx     1FFFFFF2  2  00 01 
 1450       19367.9  Tx     1FFFFFF3  6  02 E7 0F A7 0A BB 
 1451       19372.7  Rx     1FFFFFF2  3  00 00 01 
 1452       19372.8  Tx     1FFFFFF3  8  53 31 23 32 40 8A 88 86 
 1453       19375.4  Rx     1FFFFFF2  5  00 01 01 01 01 
 1454       19375.5  Tx     1FFFFFF3  8  81 95 E6 12 EE 05 42 87 
 1455       19378.2  Rx     1FFFFFF2  2  00 01 
 1456       19378.3  Tx     1FFFFFF3  8  89 8C 8B 8B 9E E6 17 9E 
 1457       19380.8  Rx     1FFFFFF2  2  00 01 
 1458       19380.9  Tx     1FFFFFF3  8  EE 09 42 8B 87 89 8B 9E 
 1459       19383.5  Rx     1FFFFFF2  2  00 01 
 1460       19383.6  Tx     1FFFFFF3  6  E6 1A 9E EE 0E 0D 
 1461       19388.3  Rx     1FFFFFF2  3  00 00 01 
 1462       19388.4  Tx     1FFFFFF3  8  53 31 23 32 60 42 8B 87 
 1463       19391.0  Rx     1FFFFFF2  5  00 01 01 01 01 
 1464       19391.1  Tx     1FFFFFF3  8  89 8B CD 31 98 CD 31 98 
 1465       19393.6  Rx     1FFFFFF2  2  00 01 
 1466       19393.7  Tx     1FFFFFF3  8  9E E6 17 9E EE 08 42 87 
 1467       19396.2  Rx     1FFFFFF2  2  00 01 
 1468       19396.3  Tx     1FFFFFF3  8  89 CD 31 B6 9E E6 16 9E 
 1469       19398.8  Rx     1FFFFFF2  2  00 01 
 1470       19398.9  Tx     1FFFFFF3  6  EE 09 42 87 89 00 
 1471       19403.8  Rx     1FFFFFF2  3  00 00 01 
 1472       19403.8  Tx     1FFFFFF3  8  53 31 23 32 80 CD 31 B6 
 1473       19406.5  Rx     1FFFFFF2  5  00 01 01 01 01 
 1474       19406.6  Tx     1FFFFFF3  8  9E E6 15 9E EE 0A 42 87 
 1475       19409.1  Rx     1FFFFFF2  2  00 01 
 1476       19409.3  Tx     1FFFFFF3  8  89 CD 31 B6 95 E6 16 EE 
 1477       19411.9  Rx     1FFFFFF2  2  00 01 
 1478       19412.0  Tx     1FFFFFF3  8  06 42 87 95 E6 16 EE 08 
 1479       19414.5  Rx     1FFFFFF2  2  00 01 
 1480       19414.6  Tx     1FFFFFF3  6  42 87 95 E6 16 12 
 1481       19419.4  Rx     1FFFFFF2  3  00 00 01 
 1482       19419.5  Tx     1FFFFFF3  8  53 31 23 32 A0 EE 0A 42 
 1483       19422.1  Rx     1FFFFFF2  5  00 01 01 01 01 
 1484       19422.2  Tx     1FFFFFF3  8  87 95 E6 16 EE 0C 42 95 
 1485       19424.8  Rx     1FFFFFF2  2  00 01 
 1486       19425.0  Tx     1FFFFFF3  8  FB EB 01 EB 02 EB 03 E7 
 1487       19427.5  Rx     1FFFFFF2  2  00 01 
 1488       19427.6  Tx     1FFFFFF3  8  16 A7 04 86 E7 17 86 E7 
 1489       19430.2  Rx     1FFFFFF2  2  00 01 
 1490       19430.4  Tx     1FFFFFF3  6  18 86 E7 19 A7 47 
 1491       19435.2  Rx     1FFFFFF2  3  00 00 01 
 1492       19435.3  Tx     1FFFFFF3  8  53 31 23 32 C0 0A 8A 88 
 1493       19438.0  Rx     1FFFFFF2  5  00 01 01 01 01 
 1494       19438.1  Tx     1FFFFFF3  8  86 81 A7 FC 95 E6 09 EA 
 1495       19440.7  Rx     1FFFFFF2  2  00 01 
 1496       19440.8  Tx     1FFFFFF3  8  0A EA 0B 26 2B E6 16 EE 
 1497       19443.3  Rx     1FFFFFF2  2  00 01 
 1498       19443.4  Tx     1FFFFFF3  8  0C 8C 52 9E E7 0A 9E E6 
 1499       19446.0  Rx     1FFFFFF2  2  00 01 
 1500       19446.1  Tx     1FFFFFF3  6  18 52 9E E7 0B 85 
 1501       19450.9  Rx     1FFFFFF2  3  00 00 01 
 1502       19450.9  Tx     1FFFFFF3  8  53 31 23 32 E0 9E E6 19 
 1503       19453.6  Rx     1FFFFFF2  5  00 01 01 01 01 
 1504       19453.7  Tx     1FFFFFF3  8  52 9E E7 0C 9E E6 1A 52 
 1505       19456.3  Rx     1FFFFFF2  2  00 01 
 1506       19456.4  Tx     1FFFFFF3  8  9E E7 0D 8B 86 95 E7 19 
 1507       19458.9  Rx     1FFFFFF2  2  00 01 
 1508       19459.0  Tx     1FFFFFF3  8  6F 18 6F 17 6F 16 20 6B 
 1509       19461.6  Rx     1FFFFFF2  2  00 01 
 1510       19461.7  Tx     1FFFFFF3  6  9E FE 0C 9E FF C0 
 1511       19466.5  Rx     1FFFFFF2  3  00 00 01 
 1512       19466.6  Tx     1FFFFFF3  8  53 31 23 33 00 03 9E FE 
 1513       19469.2  Rx     1FFFFFF2  5  00 01 01 01 01 
 1514       19469.3  Tx     1FFFFFF3  8  0A 9E FF 01 9E FE 19 9E 
 1515       19471.9  Rx     1FFFFFF2  2  00 01 
 1516       19472.0  Tx     1FFFFFF3  8  FF 0C 9E FE 17 9E FF 0A 
 1517       19474.6  Rx     1FFFFFF2  2  00 01 
 1518       19474.7  Tx     1FFFFFF3  8  5F 8C 9E FF 19 9E FF 17 
 1519       19477.3  Rx     1FFFFFF2  2  00 01 
 1520       19477.4  Tx     1FFFFFF3  6  AE 20 9E 68 0D 74 
 1521       19482.1  Rx     1FFFFFF2  3  00 00 01 
 1522       19482.2  Tx     1FFFFFF3  8  53 31 23 33 20 9E 69 0C 
 1523       19485.0  Rx     1FFFFFF2  5  00 01 01 01 01 
 1524       19485.1  Tx     1FFFFFF3  8  9E 69 0B 9E 69 0A 9E 69 
 1525       19487.8  Rx     1FFFFFF2  2  00 01 
 1526       19487.9  Tx     1FFFFFF3  8  1A 9E 69 19 9E 69 18 9E 
 1527       19490.6  Rx     1FFFFFF2  2  00 01 
 1528       19490.7  Tx     1FFFFFF3  8  69 17 89 9E FE 18 9E F3 
 1529       19493.3  Rx     1FFFFFF2  2  00 01 
 1530       19493.4  Tx     1FFFFFF3  6  02 22 0A 25 23 91 
 1531       19498.2  Rx     1FFFFFF2  3  00 00 01 
 1532       19498.3  Tx     1FFFFFF3  8  53 31 23 33 40 9E FE 1A 
 1533       19500.9  Rx     1FFFFFF2  5  00 01 01 01 01 
 1534       19501.0  Tx     1FFFFFF3  8  9E F3 04 25 1B 95 E6 1A 
 1535       19503.6  Rx     1FFFFFF2  2  00 01 
 1536       19503.7  Tx     1FFFFFF3  8  E0 04 E7 1A E6 19 E2 03 
 1537       19506.4  Rx     1FFFFFF2  2  00 01 
 1538       19506.4  Tx     1FFFFFF3  8  E7 19 E6 18 E2 02 E7 18 
 1539       19509.0  Rx     1FFFFFF2  2  00 01 
 1540       19509.1  Tx     1FFFFFF3  6  E6 17 E2 01 E7 D8 
 1541       19513.9  Rx     1FFFFFF2  3  00 00 01 
 1542       19514.0  Tx     1FFFFFF3  8  53 31 23 33 60 17 6C 0D 
 1543       19516.6  Rx     1FFFFFF2  5  00 01 01 01 01 
 1544       19516.7  Tx     1FFFFFF3  8  88 5B B7 A7 04 81 A7 FF 
 1545       19519.3  Rx     1FFFFFF2  2  00 01 
 1546       19519.4  Tx     1FFFFFF3  8  CD 32 C5 9E FE 04 9E FF 
 1547       19521.9  Rx     1FFFFFF2  2  00 01 
 1548       19522.0  Tx     1FFFFFF3  8  11 9E FE 06 9E FF 13 A7 
 1549       19524.5  Rx     1FFFFFF2  2  00 01 
 1550       19524.6  Tx     1FFFFFF3  6  0B 8A 88 86 81 1E 
 1551       19529.2  Rx     1FFFFFF2  3  00 00 01 
 1552       19529.3  Tx     1FFFFFF3  8  53 31 23 33 80 9E FE 10 
 1553       19531.9  Rx     1FFFFFF2  5  00 01 01 01 01 
 1554       19532.0  Tx     1FFFFFF3  8  9E F3 03 26 0F 9E FE 12 
 1555       19534.5  Rx     1FFFFFF2  2  00 01 
 1556       19534.6  Tx     1FFFFFF3  8  9E F3 05 27 07 4F 25 02 
 1557       19537.1  Rx     1FFFFFF2  2  00 01 
 1558       19537.2  Tx     1FFFFFF3  8  A6 02 A1 01 A7 0C 86 8A 
 1559       19539.8  Rx     1FFFFFF2  2  00 01 
 1560       19539.9  Tx     1FFFFFF3  6  88 A7 04 FC A7 E9 
 1561       19544.6  Rx     1FFFFFF2  3  00 00 01 
 1562       19544.7  Tx     1FFFFFF3  8  53 31 23 33 A0 FE 9E FF 
 1563       19547.3  Rx     1FFFFFF2  5  00 01 01 01 01 
 1564       19547.4  Tx     1FFFFFF3  8  01 95 E6 05 EE 01 42 87 
 1565       19549.9  Rx     1FFFFFF2  2  00 01 
 1566       19550.0  Tx     1FFFFFF3  8  89 95 E6 07 EE 02 42 95 
 1567       19552.6  Rx     1FFFFFF2  2  00 01 
 1568       19552.6  Tx     1FFFFFF3  8  FB 87 E6 06 EE 03 42 95 
 1569       19555.2  Rx     1FFFFFF2  2  00 01 
 1570       19555.3  Tx     1FFFFFF3  6  FB E7 03 A7 02 9F 
 1571       19560.0  Rx     1FFFFFF2  3  00 00 01 
 1572       19560.1  Tx     1FFFFFF3  8  53 31 23 33 C0 86 E7 04 
 1573       19562.7  Rx     1FFFFFF2  5  00 01 01 01 01 
 1574       19562.8  Tx     1FFFFFF3  8  8A 88 81 9E 6D 03 27 06 
 1575       19565.4  Rx     1FFFFFF2  2  00 01 
 1576       19565.5  Tx     1FFFFFF3  8  54 46 9E 6B 03 FA 81 9E 
 1577       19568.1  Rx     1FFFFFF2  2  00 01 
 1578       19568.2  Tx     1FFFFFF3  8  E3 03 26 0C 95 E1 03 27 
 1579       19570.7  Rx     1FFFFFF2  2  00 01 
 1580       19570.8  Tx     1FFFFFF3  6  07 4F 25 02 A6 10 
 1581       19575.5  Rx     1FFFFFF2  3  00 00 01 
 1582       19575.6  Tx     1FFFFFF3  8  53 31 23 33 E0 02 A1 01 
 1583       19578.2  Rx     1FFFFFF2  5  00 01 01 01 01 
 1584       19578.3  Tx     1FFFFFF3  8  8A 88 A7 02 FC CD 31 07 
 1585       19580.9  Rx     1FFFFFF2  2  00 01 
 1586       19580.9  Tx     1FFFFFF3  8  95 6C 08 26 0A 6C 07 26 
 1587       19583.6  Rx     1FFFFFF2  2  00 01 
 1588       19583.7  Tx     1FFFFFF3  8  06 6C 06 26 02 6C 05 8A 
 1589       19586.3  Rx     1FFFFFF2  2  00 01 
 1590       19586.3  Tx     1FFFFFF3  6  88 86 81 CD 31 6F 
 1591       19596.9  Rx     1FFFFFF2  3  00 00 01 
 1592       19596.9  Tx     1FFFFFF3  8  53 31 23 34 00 07 95 63 
 1593       19599.7  Rx     1FFFFFF2  5  00 01 01 01 01 
 1594       19599.8  Tx     1FFFFFF3  8  05 63 06 63 07 63 08 8A 
 1595       19602.3  Rx     1FFFFFF2  2  00 01 
 1596       19602.4  Tx     1FFFFFF3  8  88 86 81 CD 31 30 CD 31 
 1597       19605.0  Rx     1FFFFFF2  2  00 01 
 1598       19605.1  Tx     1FFFFFF3  8  79 CD 31 30 CD 31 C8 CD 
 1599       19607.7  Rx     1FFFFFF2  2  00 01 
 1600       19607.8  Tx     1FFFFFF3  6  31 30 CD 31 E7 A1 
 1601       19612.6  Rx     1FFFFFF2  3  00 00 01 
 1602       19612.7  Tx     1FFFFFF3  8  53 31 23 34 20 CD 31 30 
 1603       19615.3  Rx     1FFFFFF2  5  00 01 01 01 01 
 1604       19615.4  Tx     1FFFFFF3  8  CD 32 06 CD 31 30 CD 32 
 1605       19617.9  Rx     1FFFFFF2  2  00 01 
 1606       19618.0  Tx     1FFFFFF3  8  25 CD 31 30 CD 32 44 CD 
 1607       19620.6  Rx     1FFFFFF2  2  00 01 
 1608       19620.6  Tx     1FFFFFF3  8  31 46 CD 32 44 CD 31 30 
 1609       19623.2  Rx     1FFFFFF2  2  00 01 
 1610       19623.3  Tx     1FFFFFF3  6  CD 33 69 CD 31 76 
 1611       19628.0  Rx     1FFFFFF2  3  00 00 01 
 1612       19628.1  Tx     1FFFFFF3  8  53 31 23 34 40 5F CD 33 
 1613       19630.8  Rx     1FFFFFF2  5  00 01 01 01 01 
 1614       19630.9  Tx     1FFFFFF3  8  69 CD 31 07 95 E6 02 27 
 1615       19633.4  Rx     1FFFFFF2  2  00 01 
 1616       19633.5  Tx     1FFFFFF3  8  0A 64 05 66 06 66 07 66 
 1617       19636.1  Rx     1FFFFFF2  2  00 01 
 1618       19636.2  Tx     1FFFFFF3  8  08 4B F6 8A 88 86 81 CD 
 1619       19638.7  Rx     1FFFFFF2  2  00 01 
 1620       19638.8  Tx     1FFFFFF3  6  31 07 95 E6 02 61 
 1621       19643.6  Rx     1FFFFFF2  3  00 00 01 
 1622       19643.6  Tx     1FFFFFF3  8  53 31 23 34 60 27 0A 68 
 1623       19646.3  Rx     1FFFFFF2  5  00 01 01 01 01 
 1624       19646.4  Tx     1FFFFFF3  8  08 69 07 69 06 69 05 4B 
 1625       19648.9  Rx     1FFFFFF2  2  00 01 
 1626       19649.0  Tx     1FFFFFF3  8  F6 8A 88 86 81 CD 31 30 
 1627       19651.5  Rx     1FFFFFF2  2  00 01 
 1628       19651.6  Tx     1FFFFFF3  8  CD 33 80 CD 31 46 CD 33 
 1629       19654.1  Rx     1FFFFFF2  2  00 01 
 1630       19654.2  Tx     1FFFFFF3  6  80 87 A6 81 87 59 
 1631       19658.9  Rx     1FFFFFF2  3  00 00 01 
 1632       19659.0  Tx     1FFFFFF3  8  53 31 23 34 80 A6 F6 87 
 1633       19661.6  Rx     1FFFFFF2  5  00 01 01 01 01 
 1634       19661.7  Tx     1FFFFFF3  8  A6 26 87 A6 5D 87 9E E6 
 1635       19664.3  Rx     1FFFFFF2  2  00 01 
 1636       19664.3  Tx     1FFFFFF3  8  09 87 9E E6 09 87 A6 D7 
 1637       19666.9  Rx     1FFFFFF2  2  00 01 
 1638       19667.0  Tx     1FFFFFF3  8  87 89 8B 45 5A D6 89 8B 
 1639       19669.5  Rx     1FFFFFF2  2  00 01 
 1640       19669.6  Tx     1FFFFFF3  6  45 8C 97 89 8B E3 
 1641       19674.4  Rx     1FFFFFF2  3  00 00 01 
 1642       19674.5  Tx     1FFFFFF3  8  53 31 23 34 A0 95 E6 0D 
 1643       19677.1  Rx     1FFFFFF2  5  00 01 01 01 01 
 1644       19677.2  Tx     1FFFFFF3  8  FD A7 0D 86 8A 88 A7 02 
 1645       19679.7  Rx     1FFFFFF2  2  00 01 
 1646       19679.8  Tx     1FFFFFF3  8  FC 87 9E E6 04 F7 9E E6 
 1647       19682.4  Rx     1FFFFFF2  2  00 01 
 1648       19682.5  Tx     1FFFFFF3  8  05 E7 01 9E E6 06 E7 02 
 1649       19685.1  Rx     1FFFFFF2  2  00 01 
 1650       19685.2  Tx     1FFFFFF3  6  9E E6 07 E7 03 33 
 1651       19689.9  Rx     1FFFFFF2  3  00 00 01 
 1652       19690.0  Tx     1FFFFFF3  8  53 31 23 34 C0 86 8A 88 
 1653       19692.7  Rx     1FFFFFF2  5  00 01 01 01 01 
 1654       19692.8  Tx     1FFFFFF3  8  A7 04 FC 89 8B 87 95 E6 
 1655       19695.4  Rx     1FFFFFF2  2  00 01 
 1656       19695.5  Tx     1FFFFFF3  8  06 87 E6 05 87 E6 04 E7 
 1657       19698.1  Rx     1FFFFFF2  2  00 01 
 1658       19698.2  Tx     1FFFFFF3  8  06 E6 03 E7 05 E6 02 E7 
 1659       19700.8  Rx     1FFFFFF2  2  00 01 
 1660       19700.9  Tx     1FFFFFF3  6  04 E6 01 E7 03 44 
 1661       19705.7  Rx     1FFFFFF2  3  00 00 01 
 1662       19705.8  Tx     1FFFFFF3  8  53 31 23 34 E0 8A 88 86 
 1663       19708.4  Rx     1FFFFFF2  5  00 01 01 01 01 
 1664       19708.5  Tx     1FFFFFF3  8  A7 02 81 8A 89 87 9E EE 
 1665       19711.1  Rx     1FFFFFF2  2  00 01 
 1666       19711.2  Tx     1FFFFFF3  8  03 F1 22 1D 26 07 E6 01 
 1667       19713.8  Rx     1FFFFFF2  2  00 01 
 1668       19713.8  Tx     1FFFFFF3  8  9E E1 02 23 14 AF 02 9E 
 1669       19716.4  Rx     1FFFFFF2  2  00 01 
 1670       19716.5  Tx     1FFFFFF3  6  68 02 9E 69 01 20 
 1671       19724.1  Rx     1FFFFFF2  3  00 00 01 
 1672       19724.2  Tx     1FFFFFF3  8  53 31 23 35 00 9F 9E EB 
 1673       19726.8  Rx     1FFFFFF2  5  00 01 01 01 01 
 1674       19726.9  Tx     1FFFFFF3  8  02 97 8B 86 9E E9 01 87 
 1675       19729.5  Rx     1FFFFFF2  2  00 01 
 1676       19729.5  Tx     1FFFFFF3  8  8A A7 03 E6 02 EE 03 87 
 1677       19732.1  Rx     1FFFFFF2  2  00 01 
 1678       19732.2  Tx     1FFFFFF3  8  8A FC 4D 9F 8A 88 26 12 
 1679       19734.7  Rx     1FFFFFF2  2  00 01 
 1680       19734.8  Tx     1FFFFFF3  6  F1 24 0F AF 01 A2 
 1681       19739.5  Rx     1FFFFFF2  3  00 00 01 
 1682       19739.6  Tx     1FFFFFF3  8  53 31 23 35 20 89 9E EB 
 1683       19742.2  Rx     1FFFFFF2  5  00 01 01 01 01 
 1684       19742.3  Tx     1FFFFFF3  8  01 87 8B 86 A9 00 87 8A 
 1685       19744.8  Rx     1FFFFFF2  2  00 01 
 1686       19744.9  Tx     1FFFFFF3  8  88 86 9F EB 01 97 8B 86 
 1687       19747.5  Rx     1FFFFFF2  2  00 01 
 1688       19747.6  Tx     1FFFFFF3  8  A9 00 87 8A EC 02 87 85 
 1689       19750.1  Rx     1FFFFFF2  2  00 01 
 1690       19750.2  Tx     1FFFFFF3  6  87 9E E6 04 87 97 
 1691       19754.9  Rx     1FFFFFF2  3  00 00 01 
 1692       19755.0  Tx     1FFFFFF3  8  53 31 23 35 40 9E E6 04 
 1693       19757.6  Rx     1FFFFFF2  5  00 01 01 01 01 
 1694       19757.7  Tx     1FFFFFF3  8  87 9E E6 04 81 9E E7 04 
 1695       19760.2  Rx     1FFFFFF2  2  00 01 
 1696       19760.3  Tx     1FFFFFF3  8  86 9E E7 04 86 9E E7 04 
 1697       19762.9  Rx     1FFFFFF2  2  00 01 
 1698       19763.0  Tx     1FFFFFF3  8  86 84 86 81 89 8B 87 20 
 1699       19765.5  Rx     1FFFFFF2  2  00 01 
 1700       19765.5  Tx     1FFFFFF3  6  18 7A F6 EB 06 63 
 1701       19770.3  Rx     1FFFFFF2  3  00 00 01 
 1702       19770.3  Tx     1FFFFFF3  8  53 31 23 35 60 87 4F E9 
 1703       19773.0  Rx     1FFFFFF2  5  00 01 01 01 01 
 1704       19773.1  Tx     1FFFFFF3  8  05 87 F6 EB 02 87 4F E9 
 1705       19775.6  Rx     1FFFFFF2  2  00 01 
 1706       19775.7  Tx     1FFFFFF3  8  01 87 8A 88 FE 8A 9F 88 
 1707       19778.2  Rx     1FFFFFF2  2  00 01 
 1708       19778.3  Tx     1FFFFFF3  8  F7 95 7D 26 E4 A7 03 81 
 1709       19780.8  Rx     1FFFFFF2  2  00 01 
 1710       19780.9  Tx     1FFFFFF3  6  89 8B A7 FE 9E 7C 
 1711       19785.8  Rx     1FFFFFF2  3  00 00 01 
 1712       19785.8  Tx     1FFFFFF3  8  53 31 23 35 80 FE 09 9E 
 1713       19788.6  Rx     1FFFFFF2  5  00 01 01 01 01 
 1714       19788.7  Tx     1FFFFFF3  8  FF 01 20 25 9E FE 07 7D 
 1715       19791.3  Rx     1FFFFFF2  2  00 01 
 1716       19791.5  Tx     1FFFFFF3  8  27 14 F6 9E FE 09 F7 95 
 1717       19794.1  Rx     1FFFFFF2  2  00 01 
 1718       19794.2  Tx     1FFFFFF3  8  6C 09 26 02 6C 08 6C 07 
 1719       19796.9  Rx     1FFFFFF2  2  00 01 
 1720       19797.0  Tx     1FFFFFF3  6  26 0F 6C 06 20 70 
 1721       19801.7  Rx     1FFFFFF2  3  00 00 01 
 1722       19801.8  Tx     1FFFFFF3  8  53 31 23 35 A0 0B 9E FE 
 1723       19804.4  Rx     1FFFFFF2  5  00 01 01 01 01 
 1724       19804.5  Tx     1FFFFFF3  8  09 7F 95 6C 09 26 02 6C 
 1725       19807.2  Rx     1FFFFFF2  2  00 01 
 1726       19807.3  Tx     1FFFFFF3  8  08 9E FE 03 89 8B AF FF 
 1727       19809.9  Rx     1FFFFFF2  2  00 01 
 1728       19809.9  Tx     1FFFFFF3  8  9E FF 05 8A 88 65 00 00 
 1729       19812.5  Rx     1FFFFFF2  2  00 01 
 1730       19812.6  Tx     1FFFFFF3  6  26 CA 9E FE 01 2B 
